# QuestaSim-64 vlog 2021.1 Compiler 2021.01 Jan 19 2021
# Start time: 16:17:12 on Aug 18,2026
# vlog "+cover=bcesft" -covercells -assertdebug axi4.v axi_memory.v AXI_interface.sv AXI_transaction.sv AXI_generator.sv AXI_driver.sv AXI_monitor.sv AXI_scoreboard.sv AXI_environment.sv AXI_assertions.sv AXI_top.sv 
# -- Compiling module axi4
# -- Compiling module axi4_memory
# -- Compiling interface AXI_interface
# -- Compiling package AXI_transaction_pkg
# -- Compiling package AXI_generator_pkg
# -- Importing package AXI_transaction_pkg
# -- Compiling package AXI_driver_pkg
# -- Compiling package AXI_monitor_pkg
# -- Compiling package AXI_scoreboard_pkg
# -- Compiling package AXI_env_pkg
# -- Importing package AXI_generator_pkg
# -- Importing package AXI_driver_pkg
# -- Importing package AXI_monitor_pkg
# -- Importing package AXI_scoreboard_pkg
# -- Compiling module AXI_assertions
# -- Compiling module AXI_top
# -- Importing package AXI_env_pkg
# 
# Top level modules:
# 	AXI_top
# End time: 16:17:12 on Aug 18,2026, Elapsed time: 0:00:00
# Errors: 0, Warnings: 0
# vsim -voptargs=""+acc"" -coverage -cvgperinstance -assertdebug work.AXI_top 
# Start time: 16:17:12 on Aug 18,2026
# ** Note: (vsim-3812) Design is being optimized...
# ** Note: (vopt-143) Recognized 2 FSMs in module "axi4(fast)".
# //  Questa Sim-64
# //  Version 2021.1 win64 Jan 19 2021
# //
# //  Copyright 1991-2021 Mentor Graphics Corporation
# //  All Rights Reserved.
# //
# //  QuestaSim and its associated documentation contain trade
# //  secrets and commercial or financial information that are the property of
# //  Mentor Graphics Corporation and are privileged, confidential,
# //  and exempt from disclosure under the Freedom of Information Act,
# //  5 U.S.C. Section 552. Furthermore, this information
# //  is prohibited from disclosure under the Trade Secrets Act,
# //  18 U.S.C. Section 1905.
# //
# Loading sv_std.std
# Loading work.AXI_interface(fast)
# Loading work.AXI_transaction_pkg(fast)
# Loading work.AXI_scoreboard_pkg(fast)
# Loading work.AXI_monitor_pkg(fast)
# Loading work.AXI_driver_pkg(fast)
# Loading work.AXI_generator_pkg(fast)
# Loading work.AXI_env_pkg(fast)
# Loading work.AXI_top(fast)
# Loading work.AXI_interface(fast__2)
# Loading work.axi4(fast)
# Loading work.axi4_memory(fast)
# Loading work.AXI_assertions(fast)
# =========================================================
# [DIR_LOWER_BOUND_WR] AXI Transaction:
# Write Channel: AWADDR = 0x0, AWLEN = 0
# =========================================================
# [135] WRITE PASS: AWADDR = 0x0, AWLEN = 0, BRESP = 0x0
# =========================================================
# [DIR_LOWER_BOUND_RD] AXI Transaction:
# Read Channel : ARADDR = 0x0, ARLEN = 0
# =========================================================
# ** Error: Assertion error.
#    Time: 195 ns Started: 185 ns  Scope: AXI_top.assertion.assert_rvalid_stable File: AXI_assertions.sv Line: 61 Expr: $stable(RDATA)
# [215] READ PASS: ARADDR = 0x0, ARLEN = 0, RRESP = 0x0
# =========================================================
# [DIR_UPPER_BOUND_WR] AXI Transaction:
# Write Channel: AWADDR = 0xffc, AWLEN = 0
# =========================================================
# [295] WRITE PASS: AWADDR = 0xffc, AWLEN = 0, BRESP = 0x0
# =========================================================
# [DIR_UPPER_BOUND_RD] AXI Transaction:
# Read Channel : ARADDR = 0xffc, ARLEN = 0
# =========================================================
# ** Error: Assertion error.
#    Time: 355 ns Started: 345 ns  Scope: AXI_top.assertion.assert_rvalid_stable File: AXI_assertions.sv Line: 61 Expr: $stable(RDATA)
# [375] READ PASS: ARADDR = 0xffc, ARLEN = 0, RRESP = 0x0
# =========================================================
# [DIR_4KB_EXACT_WR] AXI Transaction:
# Write Channel: AWADDR = 0xc00, AWLEN = 255
# =========================================================
# [3005] WRITE PASS: AWADDR = 0xc00, AWLEN = 255, BRESP = 0x2
# =========================================================
# [DIR_OUT_OF_BOUNDS_WR] AXI Transaction:
# Write Channel: AWADDR = 0xf000, AWLEN = 0
# =========================================================
# [3085] WRITE PASS: AWADDR = 0xf000, AWLEN = 0, BRESP = 0x2
# =========================================================
# [DIR_OUT_OF_BOUNDS_RD] AXI Transaction:
# Read Channel : ARADDR = 0xf000, ARLEN = 0
# =========================================================
# [3165] READ PASS: ARADDR = 0xf000, ARLEN = 0, RRESP = 0x2
# =========================================================
# [DIR_ILLEGAL_CROSS_WR] AXI Transaction:
# Write Channel: AWADDR = 0xffc, AWLEN = 1
# =========================================================
# [3255] WRITE PASS: AWADDR = 0xffc, AWLEN = 1, BRESP = 0x2
# =========================================================
# [DIR_WRITE_CHECK] AXI Transaction:
# Write Channel: AWADDR = 0x100, AWLEN = 3
# =========================================================
# [3365] WRITE PASS: AWADDR = 0x100, AWLEN = 3, BRESP = 0x0
# =========================================================
# [DIR_READ_CHECK] AXI Transaction:
# Read Channel : ARADDR = 0x100, ARLEN = 3
# =========================================================
# ** Error: Assertion error.
#    Time: 3425 ns Started: 3415 ns  Scope: AXI_top.assertion.assert_rvalid_stable File: AXI_assertions.sv Line: 61 Expr: $stable(RDATA)
# [3505] READ PASS: ARADDR = 0x100, ARLEN = 3, RRESP = 0x0
# =========================================================
# [GEN_RANDOM] AXI Transaction:
# Read Channel : ARADDR = 0xa94, ARLEN = 80
# =========================================================
# ** Error: Assertion error.
#    Time: 3565 ns Started: 3555 ns  Scope: AXI_top.assertion.assert_rvalid_stable File: AXI_assertions.sv Line: 61 Expr: $stable(RDATA)
# [5185] READ PASS: ARADDR = 0xa94, ARLEN = 80, RRESP = 0x0
# =========================================================
# [GEN_RANDOM] AXI Transaction:
# Read Channel : ARADDR = 0x4e0, ARLEN = 248
# =========================================================
# [10225] READ PASS: ARADDR = 0x4e0, ARLEN = 248, RRESP = 0x0
# =========================================================
# [GEN_RANDOM] AXI Transaction:
# Write Channel: AWADDR = 0x80, AWLEN = 25
# =========================================================
# [10555] WRITE PASS: AWADDR = 0x80, AWLEN = 25, BRESP = 0x0
# =========================================================
# [GEN_RANDOM] AXI Transaction:
# Write Channel: AWADDR = 0x794, AWLEN = 36
# =========================================================
# [10995] WRITE PASS: AWADDR = 0x794, AWLEN = 36, BRESP = 0x0
# =========================================================
# [GEN_RANDOM] AXI Transaction:
# Read Channel : ARADDR = 0x94, ARLEN = 188
# =========================================================
# ** Error: Assertion error.
#    Time: 11055 ns Started: 11045 ns  Scope: AXI_top.assertion.assert_rvalid_stable File: AXI_assertions.sv Line: 61 Expr: $stable(RDATA)
# [14835] READ PASS: ARADDR = 0x94, ARLEN = 188, RRESP = 0x0
# =========================================================
# [GEN_RANDOM] AXI Transaction:
# Read Channel : ARADDR = 0x5ac, ARLEN = 219
# =========================================================
# [19295] READ PASS: ARADDR = 0x5ac, ARLEN = 219, RRESP = 0x0
# =========================================================
# [GEN_RANDOM] AXI Transaction:
# Read Channel : ARADDR = 0xc58, ARLEN = 184
# =========================================================
# [23055] READ PASS: ARADDR = 0xc58, ARLEN = 184, RRESP = 0x2
# =========================================================
# [GEN_RANDOM] AXI Transaction:
# Write Channel: AWADDR = 0xc64, AWLEN = 7
# =========================================================
# [23205] WRITE PASS: AWADDR = 0xc64, AWLEN = 7, BRESP = 0x0
# =========================================================
# [GEN_RANDOM] AXI Transaction:
# Write Channel: AWADDR = 0xa00, AWLEN = 166
# =========================================================
# [24945] WRITE PASS: AWADDR = 0xa00, AWLEN = 166, BRESP = 0x0
# =========================================================
# [GEN_RANDOM] AXI Transaction:
# Read Channel : ARADDR = 0x778, ARLEN = 120
# =========================================================
# [27425] READ PASS: ARADDR = 0x778, ARLEN = 120, RRESP = 0x0
# =========================================================
# [GEN_RANDOM] AXI Transaction:
# Read Channel : ARADDR = 0x4f4, ARLEN = 57
# =========================================================
# [28645] READ PASS: ARADDR = 0x4f4, ARLEN = 57, RRESP = 0x0
# =========================================================
# [GEN_RANDOM] AXI Transaction:
# Write Channel: AWADDR = 0x898, AWLEN = 237
# =========================================================
# [31095] WRITE PASS: AWADDR = 0x898, AWLEN = 237, BRESP = 0x2
# =========================================================
# [GEN_RANDOM] AXI Transaction:
# Read Channel : ARADDR = 0x758, ARLEN = 253
# =========================================================
# [36235] READ PASS: ARADDR = 0x758, ARLEN = 253, RRESP = 0x0
# =========================================================
# [GEN_RANDOM] AXI Transaction:
# Write Channel: AWADDR = 0xc20, AWLEN = 163
# =========================================================
# [37945] WRITE PASS: AWADDR = 0xc20, AWLEN = 163, BRESP = 0x2
# =========================================================
# [GEN_RANDOM] AXI Transaction:
# Write Channel: AWADDR = 0x324, AWLEN = 131
# =========================================================
# [39335] WRITE PASS: AWADDR = 0x324, AWLEN = 131, BRESP = 0x0
# =========================================================
# [GEN_RANDOM] AXI Transaction:
# Write Channel: AWADDR = 0x5d0, AWLEN = 114
# =========================================================
# [40555] WRITE PASS: AWADDR = 0x5d0, AWLEN = 114, BRESP = 0x0
# =========================================================
# [GEN_RANDOM] AXI Transaction:
# Write Channel: AWADDR = 0xbf4, AWLEN = 231
# =========================================================
# [42945] WRITE PASS: AWADDR = 0xbf4, AWLEN = 231, BRESP = 0x2
# =========================================================
# [GEN_RANDOM] AXI Transaction:
# Read Channel : ARADDR = 0x4f8, ARLEN = 124
# =========================================================
# ** Error: Assertion error.
#    Time: 43005 ns Started: 42995 ns  Scope: AXI_top.assertion.assert_rvalid_stable File: AXI_assertions.sv Line: 61 Expr: $stable(RDATA)
# [45505] READ PASS: ARADDR = 0x4f8, ARLEN = 124, RRESP = 0x0
# =========================================================
# [GEN_RANDOM] AXI Transaction:
# Write Channel: AWADDR = 0x2ec, AWLEN = 164
# =========================================================
# [47225] WRITE PASS: AWADDR = 0x2ec, AWLEN = 164, BRESP = 0x0
# =========================================================
# [GEN_RANDOM] AXI Transaction:
# Read Channel : ARADDR = 0x710, ARLEN = 129
# =========================================================
# ** Error: Assertion error.
#    Time: 47285 ns Started: 47275 ns  Scope: AXI_top.assertion.assert_rvalid_stable File: AXI_assertions.sv Line: 61 Expr: $stable(RDATA)
# [49885] READ PASS: ARADDR = 0x710, ARLEN = 129, RRESP = 0x0
# =========================================================
# [GEN_RANDOM] AXI Transaction:
# Read Channel : ARADDR = 0x5e0, ARLEN = 225
# =========================================================
# ** Error: Assertion error.
#    Time: 49945 ns Started: 49935 ns  Scope: AXI_top.assertion.assert_rvalid_stable File: AXI_assertions.sv Line: 61 Expr: $stable(RDATA)
# [54465] READ PASS: ARADDR = 0x5e0, ARLEN = 225, RRESP = 0x0
# =========================================================
# [GEN_RANDOM] AXI Transaction:
# Read Channel : ARADDR = 0xd08, ARLEN = 109
# =========================================================
# ** Error: Assertion error.
#    Time: 54525 ns Started: 54515 ns  Scope: AXI_top.assertion.assert_rvalid_stable File: AXI_assertions.sv Line: 61 Expr: $stable(RDATA)
# [56725] READ PASS: ARADDR = 0xd08, ARLEN = 109, RRESP = 0x2
# =========================================================
# [GEN_RANDOM] AXI Transaction:
# Write Channel: AWADDR = 0xff8, AWLEN = 189
# =========================================================
# [58695] WRITE PASS: AWADDR = 0xff8, AWLEN = 189, BRESP = 0x2
# =========================================================
# [GEN_RANDOM] AXI Transaction:
# Write Channel: AWADDR = 0x5fc, AWLEN = 46
# =========================================================
# [59235] WRITE PASS: AWADDR = 0x5fc, AWLEN = 46, BRESP = 0x0
# =========================================================
# [GEN_RANDOM] AXI Transaction:
# Read Channel : ARADDR = 0xde4, ARLEN = 198
# =========================================================
# [63275] READ PASS: ARADDR = 0xde4, ARLEN = 198, RRESP = 0x2
# =========================================================
# [GEN_RANDOM] AXI Transaction:
# Read Channel : ARADDR = 0xe08, ARLEN = 112
# =========================================================
# [65595] READ PASS: ARADDR = 0xe08, ARLEN = 112, RRESP = 0x2
# =========================================================
# [GEN_RANDOM] AXI Transaction:
# Write Channel: AWADDR = 0x9fc, AWLEN = 37
# =========================================================
# [66045] WRITE PASS: AWADDR = 0x9fc, AWLEN = 37, BRESP = 0x0
# =========================================================
# [GEN_RANDOM] AXI Transaction:
# Read Channel : ARADDR = 0x604, ARLEN = 91
# =========================================================
# ** Error: Assertion error.
#    Time: 66105 ns Started: 66095 ns  Scope: AXI_top.assertion.assert_rvalid_stable File: AXI_assertions.sv Line: 61 Expr: $stable(RDATA)
# [67945] READ PASS: ARADDR = 0x604, ARLEN = 91, RRESP = 0x0
# =========================================================
# [GEN_RANDOM] AXI Transaction:
# Write Channel: AWADDR = 0x82c, AWLEN = 245
# =========================================================
# [70475] WRITE PASS: AWADDR = 0x82c, AWLEN = 245, BRESP = 0x0
# =========================================================
# [GEN_RANDOM] AXI Transaction:
# Write Channel: AWADDR = 0xfc, AWLEN = 77
# =========================================================
# [71325] WRITE PASS: AWADDR = 0xfc, AWLEN = 77, BRESP = 0x0
# =========================================================
# [GEN_RANDOM] AXI Transaction:
# Write Channel: AWADDR = 0x798, AWLEN = 16
# =========================================================
# [71565] WRITE PASS: AWADDR = 0x798, AWLEN = 16, BRESP = 0x0
# =========================================================
# [GEN_RANDOM] AXI Transaction:
# Write Channel: AWADDR = 0x458, AWLEN = 192
# =========================================================
# [73565] WRITE PASS: AWADDR = 0x458, AWLEN = 192, BRESP = 0x0
# =========================================================
# [GEN_RANDOM] AXI Transaction:
# Write Channel: AWADDR = 0x30c, AWLEN = 43
# =========================================================
# [74075] WRITE PASS: AWADDR = 0x30c, AWLEN = 43, BRESP = 0x0
# =========================================================
# [GEN_RANDOM] AXI Transaction:
# Read Channel : ARADDR = 0xe4c, ARLEN = 29
# =========================================================
# ** Error: Assertion error.
#    Time: 74135 ns Started: 74125 ns  Scope: AXI_top.assertion.assert_rvalid_stable File: AXI_assertions.sv Line: 61 Expr: $stable(RDATA)
# [74735] READ PASS: ARADDR = 0xe4c, ARLEN = 29, RRESP = 0x0
# =========================================================
# [GEN_RANDOM] AXI Transaction:
# Write Channel: AWADDR = 0x840, AWLEN = 179
# =========================================================
# [76605] WRITE PASS: AWADDR = 0x840, AWLEN = 179, BRESP = 0x0
# =========================================================
# [GEN_RANDOM] AXI Transaction:
# Write Channel: AWADDR = 0xe30, AWLEN = 114
# =========================================================
# [77825] WRITE PASS: AWADDR = 0xe30, AWLEN = 114, BRESP = 0x2
# =========================================================
# [GEN_RANDOM] AXI Transaction:
# Read Channel : ARADDR = 0xd7c, ARLEN = 94
# =========================================================
# [79785] READ PASS: ARADDR = 0xd7c, ARLEN = 94, RRESP = 0x2
# =========================================================
# [GEN_RANDOM] AXI Transaction:
# Read Channel : ARADDR = 0x1e8, ARLEN = 173
# =========================================================
# ** Error: Assertion error.
#    Time: 79845 ns Started: 79835 ns  Scope: AXI_top.assertion.assert_rvalid_stable File: AXI_assertions.sv Line: 61 Expr: $stable(RDATA)
# [83325] READ PASS: ARADDR = 0x1e8, ARLEN = 173, RRESP = 0x0
# =========================================================
# [GEN_RANDOM] AXI Transaction:
# Read Channel : ARADDR = 0x120, ARLEN = 225
# =========================================================
# ** Error: Assertion error.
#    Time: 83385 ns Started: 83375 ns  Scope: AXI_top.assertion.assert_rvalid_stable File: AXI_assertions.sv Line: 61 Expr: $stable(RDATA)
# [87905] READ PASS: ARADDR = 0x120, ARLEN = 225, RRESP = 0x0
# =========================================================
# [GEN_RANDOM] AXI Transaction:
# Write Channel: AWADDR = 0x3ac, AWLEN = 125
# =========================================================
# [89235] WRITE PASS: AWADDR = 0x3ac, AWLEN = 125, BRESP = 0x0
# =========================================================
# [GEN_RANDOM] AXI Transaction:
# Write Channel: AWADDR = 0xd40, AWLEN = 102
# =========================================================
# [90335] WRITE PASS: AWADDR = 0xd40, AWLEN = 102, BRESP = 0x2
# =========================================================
# [GEN_RANDOM] AXI Transaction:
# Write Channel: AWADDR = 0xb90, AWLEN = 3
# =========================================================
# [90445] WRITE PASS: AWADDR = 0xb90, AWLEN = 3, BRESP = 0x0
# =========================================================
# [GEN_RANDOM] AXI Transaction:
# Read Channel : ARADDR = 0x9d8, ARLEN = 89
# =========================================================
# ** Error: Assertion error.
#    Time: 90505 ns Started: 90495 ns  Scope: AXI_top.assertion.assert_rvalid_stable File: AXI_assertions.sv Line: 61 Expr: $stable(RDATA)
# [92305] READ PASS: ARADDR = 0x9d8, ARLEN = 89, RRESP = 0x0
# =========================================================
# [GEN_RANDOM] AXI Transaction:
# Write Channel: AWADDR = 0xad8, AWLEN = 25
# =========================================================
# [92635] WRITE PASS: AWADDR = 0xad8, AWLEN = 25, BRESP = 0x0
# =========================================================
# [GEN_RANDOM] AXI Transaction:
# Write Channel: AWADDR = 0xbb8, AWLEN = 173
# =========================================================
# [94445] WRITE PASS: AWADDR = 0xbb8, AWLEN = 173, BRESP = 0x2
# =========================================================
# [GEN_RANDOM] AXI Transaction:
# Write Channel: AWADDR = 0xbd0, AWLEN = 86
# =========================================================
# [95385] WRITE PASS: AWADDR = 0xbd0, AWLEN = 86, BRESP = 0x0
# =========================================================
# [GEN_RANDOM] AXI Transaction:
# Write Channel: AWADDR = 0xdc8, AWLEN = 217
# =========================================================
# [97635] WRITE PASS: AWADDR = 0xdc8, AWLEN = 217, BRESP = 0x2
# =========================================================
# [GEN_RANDOM] AXI Transaction:
# Write Channel: AWADDR = 0xe20, AWLEN = 188
# =========================================================
# [99595] WRITE PASS: AWADDR = 0xe20, AWLEN = 188, BRESP = 0x2
# =========================================================
# [GEN_RANDOM] AXI Transaction:
# Write Channel: AWADDR = 0x4c8, AWLEN = 128
# =========================================================
# [100955] WRITE PASS: AWADDR = 0x4c8, AWLEN = 128, BRESP = 0x0
# =========================================================
# [GEN_RANDOM] AXI Transaction:
# Read Channel : ARADDR = 0xdbc, ARLEN = 222
# =========================================================
# [105475] READ PASS: ARADDR = 0xdbc, ARLEN = 222, RRESP = 0x2
# =========================================================
# [GEN_RANDOM] AXI Transaction:
# Read Channel : ARADDR = 0x80, ARLEN = 70
# =========================================================
# ** Error: Assertion error.
#    Time: 105535 ns Started: 105525 ns  Scope: AXI_top.assertion.assert_rvalid_stable File: AXI_assertions.sv Line: 61 Expr: $stable(RDATA)
# [106955] READ PASS: ARADDR = 0x80, ARLEN = 70, RRESP = 0x0
# =========================================================
# [GEN_RANDOM] AXI Transaction:
# Write Channel: AWADDR = 0xcb8, AWLEN = 90
# =========================================================
# [107935] WRITE PASS: AWADDR = 0xcb8, AWLEN = 90, BRESP = 0x0
# =========================================================
# [GEN_RANDOM] AXI Transaction:
# Write Channel: AWADDR = 0x108, AWLEN = 103
# =========================================================
# [109045] WRITE PASS: AWADDR = 0x108, AWLEN = 103, BRESP = 0x0
# =========================================================
# [GEN_RANDOM] AXI Transaction:
# Write Channel: AWADDR = 0x634, AWLEN = 177
# =========================================================
# [110895] WRITE PASS: AWADDR = 0x634, AWLEN = 177, BRESP = 0x0
# =========================================================
# [GEN_RANDOM] AXI Transaction:
# Write Channel: AWADDR = 0x7d0, AWLEN = 246
# =========================================================
# [113435] WRITE PASS: AWADDR = 0x7d0, AWLEN = 246, BRESP = 0x0
# =========================================================
# [GEN_RANDOM] AXI Transaction:
# Write Channel: AWADDR = 0x638, AWLEN = 78
# =========================================================
# [114295] WRITE PASS: AWADDR = 0x638, AWLEN = 78, BRESP = 0x0
# =========================================================
# [GEN_RANDOM] AXI Transaction:
# Read Channel : ARADDR = 0x6c8, ARLEN = 90
# =========================================================
# ** Error: Assertion error.
#    Time: 114355 ns Started: 114345 ns  Scope: AXI_top.assertion.assert_rvalid_stable File: AXI_assertions.sv Line: 61 Expr: $stable(RDATA)
# [116175] READ PASS: ARADDR = 0x6c8, ARLEN = 90, RRESP = 0x0
# =========================================================
# [GEN_RANDOM] AXI Transaction:
# Read Channel : ARADDR = 0x744, ARLEN = 188
# =========================================================
# ** Error: Assertion error.
#    Time: 116235 ns Started: 116225 ns  Scope: AXI_top.assertion.assert_rvalid_stable File: AXI_assertions.sv Line: 61 Expr: $stable(RDATA)
# [120015] READ PASS: ARADDR = 0x744, ARLEN = 188, RRESP = 0x0
# =========================================================
# [GEN_RANDOM] AXI Transaction:
# Read Channel : ARADDR = 0x7ac, ARLEN = 33
# =========================================================
# ** Error: Assertion error.
#    Time: 120075 ns Started: 120065 ns  Scope: AXI_top.assertion.assert_rvalid_stable File: AXI_assertions.sv Line: 61 Expr: $stable(RDATA)
# [120755] READ PASS: ARADDR = 0x7ac, ARLEN = 33, RRESP = 0x0
# =========================================================
# [GEN_RANDOM] AXI Transaction:
# Write Channel: AWADDR = 0xa78, AWLEN = 29
# =========================================================
# [121125] WRITE PASS: AWADDR = 0xa78, AWLEN = 29, BRESP = 0x0
# =========================================================
# [GEN_RANDOM] AXI Transaction:
# Read Channel : ARADDR = 0x4f8, ARLEN = 116
# =========================================================
# ** Error: Assertion error.
#    Time: 121185 ns Started: 121175 ns  Scope: AXI_top.assertion.assert_rvalid_stable File: AXI_assertions.sv Line: 61 Expr: $stable(RDATA)
# [123525] READ PASS: ARADDR = 0x4f8, ARLEN = 116, RRESP = 0x0
# =========================================================
# [GEN_RANDOM] AXI Transaction:
# Read Channel : ARADDR = 0x470, ARLEN = 216
# =========================================================
# ** Error: Assertion error.
#    Time: 123585 ns Started: 123575 ns  Scope: AXI_top.assertion.assert_rvalid_stable File: AXI_assertions.sv Line: 61 Expr: $stable(RDATA)
# [127925] READ PASS: ARADDR = 0x470, ARLEN = 216, RRESP = 0x0
# =========================================================
# [GEN_RANDOM] AXI Transaction:
# Write Channel: AWADDR = 0xf88, AWLEN = 234
# =========================================================
# [130345] WRITE PASS: AWADDR = 0xf88, AWLEN = 234, BRESP = 0x2
# =========================================================
# [GEN_RANDOM] AXI Transaction:
# Write Channel: AWADDR = 0x958, AWLEN = 41
# =========================================================
# [130835] WRITE PASS: AWADDR = 0x958, AWLEN = 41, BRESP = 0x0
# =========================================================
# [GEN_RANDOM] AXI Transaction:
# Read Channel : ARADDR = 0x60, ARLEN = 40
# =========================================================
# ** Error: Assertion error.
#    Time: 130895 ns Started: 130885 ns  Scope: AXI_top.assertion.assert_rvalid_stable File: AXI_assertions.sv Line: 61 Expr: $stable(RDATA)
# [131715] READ PASS: ARADDR = 0x60, ARLEN = 40, RRESP = 0x0
# =========================================================
# [GEN_RANDOM] AXI Transaction:
# Read Channel : ARADDR = 0x384, ARLEN = 209
# =========================================================
# ** Error: Assertion error.
#    Time: 131775 ns Started: 131765 ns  Scope: AXI_top.assertion.assert_rvalid_stable File: AXI_assertions.sv Line: 61 Expr: $stable(RDATA)
# [135975] READ PASS: ARADDR = 0x384, ARLEN = 209, RRESP = 0x0
# =========================================================
# [GEN_RANDOM] AXI Transaction:
# Read Channel : ARADDR = 0x478, ARLEN = 188
# =========================================================
# ** Error: Assertion error.
#    Time: 136035 ns Started: 136025 ns  Scope: AXI_top.assertion.assert_rvalid_stable File: AXI_assertions.sv Line: 61 Expr: $stable(RDATA)
# [139815] READ PASS: ARADDR = 0x478, ARLEN = 188, RRESP = 0x0
# =========================================================
# [GEN_RANDOM] AXI Transaction:
# Read Channel : ARADDR = 0x338, ARLEN = 213
# =========================================================
# ** Error: Assertion error.
#    Time: 139875 ns Started: 139865 ns  Scope: AXI_top.assertion.assert_rvalid_stable File: AXI_assertions.sv Line: 61 Expr: $stable(RDATA)
# [144155] READ PASS: ARADDR = 0x338, ARLEN = 213, RRESP = 0x0
# =========================================================
# [GEN_RANDOM] AXI Transaction:
# Read Channel : ARADDR = 0x458, ARLEN = 250
# =========================================================
# ** Error: Assertion error.
#    Time: 144215 ns Started: 144205 ns  Scope: AXI_top.assertion.assert_rvalid_stable File: AXI_assertions.sv Line: 61 Expr: $stable(RDATA)
# [149235] READ PASS: ARADDR = 0x458, ARLEN = 250, RRESP = 0x0
# =========================================================
# [GEN_RANDOM] AXI Transaction:
# Write Channel: AWADDR = 0xf8, AWLEN = 68
# =========================================================
# [149995] WRITE PASS: AWADDR = 0xf8, AWLEN = 68, BRESP = 0x0
# =========================================================
# [GEN_RANDOM] AXI Transaction:
# Read Channel : ARADDR = 0xe8c, ARLEN = 8
# =========================================================
# ** Error: Assertion error.
#    Time: 150055 ns Started: 150045 ns  Scope: AXI_top.assertion.assert_rvalid_stable File: AXI_assertions.sv Line: 61 Expr: $stable(RDATA)
# [150235] READ PASS: ARADDR = 0xe8c, ARLEN = 8, RRESP = 0x0
# =========================================================
# [GEN_RANDOM] AXI Transaction:
# Write Channel: AWADDR = 0xb00, AWLEN = 70
# =========================================================
# [151015] WRITE PASS: AWADDR = 0xb00, AWLEN = 70, BRESP = 0x0
# =========================================================
# [GEN_RANDOM] AXI Transaction:
# Write Channel: AWADDR = 0x25c, AWLEN = 103
# =========================================================
# [152125] WRITE PASS: AWADDR = 0x25c, AWLEN = 103, BRESP = 0x0
# =========================================================
# [GEN_RANDOM] AXI Transaction:
# Read Channel : ARADDR = 0x76c, ARLEN = 37
# =========================================================
# ** Error: Assertion error.
#    Time: 152185 ns Started: 152175 ns  Scope: AXI_top.assertion.assert_rvalid_stable File: AXI_assertions.sv Line: 61 Expr: $stable(RDATA)
# [152945] READ PASS: ARADDR = 0x76c, ARLEN = 37, RRESP = 0x0
# =========================================================
# [GEN_RANDOM] AXI Transaction:
# Write Channel: AWADDR = 0x9e0, AWLEN = 88
# =========================================================
# [153905] WRITE PASS: AWADDR = 0x9e0, AWLEN = 88, BRESP = 0x0
# =========================================================
# [GEN_RANDOM] AXI Transaction:
# Read Channel : ARADDR = 0x74c, ARLEN = 122
# =========================================================
# ** Error: Assertion error.
#    Time: 153965 ns Started: 153955 ns  Scope: AXI_top.assertion.assert_rvalid_stable File: AXI_assertions.sv Line: 61 Expr: $stable(RDATA)
# [156425] READ PASS: ARADDR = 0x74c, ARLEN = 122, RRESP = 0x0
# =========================================================
# [GEN_RANDOM] AXI Transaction:
# Write Channel: AWADDR = 0x240, AWLEN = 255
# =========================================================
# [159055] WRITE PASS: AWADDR = 0x240, AWLEN = 255, BRESP = 0x0
# =========================================================
# [GEN_RANDOM] AXI Transaction:
# Read Channel : ARADDR = 0x29c, ARLEN = 130
# =========================================================
# ** Error: Assertion error.
#    Time: 159115 ns Started: 159105 ns  Scope: AXI_top.assertion.assert_rvalid_stable File: AXI_assertions.sv Line: 61 Expr: $stable(RDATA)
# [161735] READ PASS: ARADDR = 0x29c, ARLEN = 130, RRESP = 0x0
# =========================================================
# [GEN_RANDOM] AXI Transaction:
# Read Channel : ARADDR = 0x4ec, ARLEN = 69
# =========================================================
# ** Error: Assertion error.
#    Time: 161795 ns Started: 161785 ns  Scope: AXI_top.assertion.assert_rvalid_stable File: AXI_assertions.sv Line: 61 Expr: $stable(RDATA)
# [163195] READ PASS: ARADDR = 0x4ec, ARLEN = 69, RRESP = 0x0
# =========================================================
# [GEN_RANDOM] AXI Transaction:
# Write Channel: AWADDR = 0xa1c, AWLEN = 51
# =========================================================
# [163785] WRITE PASS: AWADDR = 0xa1c, AWLEN = 51, BRESP = 0x0
# =========================================================
# [GEN_RANDOM] AXI Transaction:
# Read Channel : ARADDR = 0x234, ARLEN = 3
# =========================================================
# ** Error: Assertion error.
#    Time: 163845 ns Started: 163835 ns  Scope: AXI_top.assertion.assert_rvalid_stable File: AXI_assertions.sv Line: 61 Expr: $stable(RDATA)
# [163925] READ PASS: ARADDR = 0x234, ARLEN = 3, RRESP = 0x0
# =========================================================
# [GEN_RANDOM] AXI Transaction:
# Read Channel : ARADDR = 0x5dc, ARLEN = 99
# =========================================================
# ** Error: Assertion error.
#    Time: 163985 ns Started: 163975 ns  Scope: AXI_top.assertion.assert_rvalid_stable File: AXI_assertions.sv Line: 61 Expr: $stable(RDATA)
# [165985] READ PASS: ARADDR = 0x5dc, ARLEN = 99, RRESP = 0x0
# =========================================================
# [GEN_RANDOM] AXI Transaction:
# Write Channel: AWADDR = 0xebc, AWLEN = 43
# =========================================================
# [166495] WRITE PASS: AWADDR = 0xebc, AWLEN = 43, BRESP = 0x2
# =========================================================
# [GEN_RANDOM] AXI Transaction:
# Read Channel : ARADDR = 0xf5c, ARLEN = 182
# =========================================================
# [170215] READ PASS: ARADDR = 0xf5c, ARLEN = 182, RRESP = 0x2
# =========================================================
# [GEN_RANDOM] AXI Transaction:
# Read Channel : ARADDR = 0x4d8, ARLEN = 97
# =========================================================
# ** Error: Assertion error.
#    Time: 170275 ns Started: 170265 ns  Scope: AXI_top.assertion.assert_rvalid_stable File: AXI_assertions.sv Line: 61 Expr: $stable(RDATA)
# [172235] READ PASS: ARADDR = 0x4d8, ARLEN = 97, RRESP = 0x0
# =========================================================
# [GEN_RANDOM] AXI Transaction:
# Read Channel : ARADDR = 0x6b8, ARLEN = 16
# =========================================================
# ** Error: Assertion error.
#    Time: 172295 ns Started: 172285 ns  Scope: AXI_top.assertion.assert_rvalid_stable File: AXI_assertions.sv Line: 61 Expr: $stable(RDATA)
# [172635] READ PASS: ARADDR = 0x6b8, ARLEN = 16, RRESP = 0x0
# =========================================================
# [GEN_RANDOM] AXI Transaction:
# Read Channel : ARADDR = 0xc44, ARLEN = 27
# =========================================================
# ** Error: Assertion error.
#    Time: 172695 ns Started: 172685 ns  Scope: AXI_top.assertion.assert_rvalid_stable File: AXI_assertions.sv Line: 61 Expr: $stable(RDATA)
# [173255] READ PASS: ARADDR = 0xc44, ARLEN = 27, RRESP = 0x0
# =========================================================
# [GEN_RANDOM] AXI Transaction:
# Write Channel: AWADDR = 0xab4, AWLEN = 0
# =========================================================
# [173335] WRITE PASS: AWADDR = 0xab4, AWLEN = 0, BRESP = 0x0
# =========================================================
# [GEN_RANDOM] AXI Transaction:
# Write Channel: AWADDR = 0xcb8, AWLEN = 226
# =========================================================
# [175675] WRITE PASS: AWADDR = 0xcb8, AWLEN = 226, BRESP = 0x2
# =========================================================
# [GEN_RANDOM] AXI Transaction:
# Read Channel : ARADDR = 0x2ac, ARLEN = 196
# =========================================================
# ** Error: Assertion error.
#    Time: 175735 ns Started: 175725 ns  Scope: AXI_top.assertion.assert_rvalid_stable File: AXI_assertions.sv Line: 61 Expr: $stable(RDATA)
# [179675] READ PASS: ARADDR = 0x2ac, ARLEN = 196, RRESP = 0x0
# =========================================================
# [GEN_RANDOM] AXI Transaction:
# Write Channel: AWADDR = 0x40c, AWLEN = 56
# =========================================================
# [180315] WRITE PASS: AWADDR = 0x40c, AWLEN = 56, BRESP = 0x0
# =========================================================
# [GEN_RANDOM] AXI Transaction:
# Read Channel : ARADDR = 0xa3c, ARLEN = 4
# =========================================================
# ** Error: Assertion error.
#    Time: 180375 ns Started: 180365 ns  Scope: AXI_top.assertion.assert_rvalid_stable File: AXI_assertions.sv Line: 61 Expr: $stable(RDATA)
# [180475] READ PASS: ARADDR = 0xa3c, ARLEN = 4, RRESP = 0x0
# =========================================================
# [GEN_RANDOM] AXI Transaction:
# Read Channel : ARADDR = 0x210, ARLEN = 99
# =========================================================
# ** Error: Assertion error.
#    Time: 180535 ns Started: 180525 ns  Scope: AXI_top.assertion.assert_rvalid_stable File: AXI_assertions.sv Line: 61 Expr: $stable(RDATA)
# [182535] READ PASS: ARADDR = 0x210, ARLEN = 99, RRESP = 0x0
# =========================================================
# [GEN_RANDOM] AXI Transaction:
# Write Channel: AWADDR = 0xfd8, AWLEN = 140
# =========================================================
# [184015] WRITE PASS: AWADDR = 0xfd8, AWLEN = 140, BRESP = 0x2
# =========================================================
# [GEN_RANDOM] AXI Transaction:
# Read Channel : ARADDR = 0x8c8, ARLEN = 70
# =========================================================
# ** Error: Assertion error.
#    Time: 184075 ns Started: 184065 ns  Scope: AXI_top.assertion.assert_rvalid_stable File: AXI_assertions.sv Line: 61 Expr: $stable(RDATA)
# [185495] READ PASS: ARADDR = 0x8c8, ARLEN = 70, RRESP = 0x0
# =========================================================
# [GEN_RANDOM] AXI Transaction:
# Read Channel : ARADDR = 0x20c, ARLEN = 121
# =========================================================
# ** Error: Assertion error.
#    Time: 185555 ns Started: 185545 ns  Scope: AXI_top.assertion.assert_rvalid_stable File: AXI_assertions.sv Line: 61 Expr: $stable(RDATA)
# [187995] READ PASS: ARADDR = 0x20c, ARLEN = 121, RRESP = 0x0
# =========================================================
# [GEN_RANDOM] AXI Transaction:
# Read Channel : ARADDR = 0xb60, ARLEN = 244
# =========================================================
# ** Error: Assertion error.
#    Time: 188055 ns Started: 188045 ns  Scope: AXI_top.assertion.assert_rvalid_stable File: AXI_assertions.sv Line: 61 Expr: $stable(RDATA)
# [192955] READ PASS: ARADDR = 0xb60, ARLEN = 244, RRESP = 0x2
# =========================================================
# [GEN_RANDOM] AXI Transaction:
# Write Channel: AWADDR = 0x7c4, AWLEN = 202
# =========================================================
# [195055] WRITE PASS: AWADDR = 0x7c4, AWLEN = 202, BRESP = 0x0
# =========================================================
# [GEN_RANDOM] AXI Transaction:
# Read Channel : ARADDR = 0xe68, ARLEN = 135
# =========================================================
# [197835] READ PASS: ARADDR = 0xe68, ARLEN = 135, RRESP = 0x2
# =========================================================
# [GEN_RANDOM] AXI Transaction:
# Write Channel: AWADDR = 0x904, AWLEN = 187
# =========================================================
# [199785] WRITE PASS: AWADDR = 0x904, AWLEN = 187, BRESP = 0x0
# =========================================================
# [GEN_RANDOM] AXI Transaction:
# Read Channel : ARADDR = 0x9d4, ARLEN = 32
# =========================================================
# ** Error: Assertion error.
#    Time: 199845 ns Started: 199835 ns  Scope: AXI_top.assertion.assert_rvalid_stable File: AXI_assertions.sv Line: 61 Expr: $stable(RDATA)
# [200505] READ PASS: ARADDR = 0x9d4, ARLEN = 32, RRESP = 0x0
# =========================================================
# [GEN_RANDOM] AXI Transaction:
# Read Channel : ARADDR = 0x3b4, ARLEN = 55
# =========================================================
# ** Error: Assertion error.
#    Time: 200565 ns Started: 200555 ns  Scope: AXI_top.assertion.assert_rvalid_stable File: AXI_assertions.sv Line: 61 Expr: $stable(RDATA)
# [201685] READ PASS: ARADDR = 0x3b4, ARLEN = 55, RRESP = 0x0
# =========================================================
# [GEN_RANDOM] AXI Transaction:
# Write Channel: AWADDR = 0xf9c, AWLEN = 121
# =========================================================
# [202975] WRITE PASS: AWADDR = 0xf9c, AWLEN = 121, BRESP = 0x2
# =========================================================
# [GEN_RANDOM] AXI Transaction:
# Write Channel: AWADDR = 0xa4c, AWLEN = 41
# =========================================================
# [203465] WRITE PASS: AWADDR = 0xa4c, AWLEN = 41, BRESP = 0x0
# =========================================================
# [GEN_RANDOM] AXI Transaction:
# Read Channel : ARADDR = 0xf24, ARLEN = 95
# =========================================================
# [205445] READ PASS: ARADDR = 0xf24, ARLEN = 95, RRESP = 0x2
# =========================================================
# [GEN_RANDOM] AXI Transaction:
# Read Channel : ARADDR = 0x4d0, ARLEN = 87
# =========================================================
# ** Error: Assertion error.
#    Time: 205505 ns Started: 205495 ns  Scope: AXI_top.assertion.assert_rvalid_stable File: AXI_assertions.sv Line: 61 Expr: $stable(RDATA)
# [207265] READ PASS: ARADDR = 0x4d0, ARLEN = 87, RRESP = 0x0
# =========================================================
# [GEN_RANDOM] AXI Transaction:
# Write Channel: AWADDR = 0xa04, AWLEN = 157
# =========================================================
# [208915] WRITE PASS: AWADDR = 0xa04, AWLEN = 157, BRESP = 0x0
# =========================================================
# [GEN_RANDOM] AXI Transaction:
# Write Channel: AWADDR = 0xba4, AWLEN = 31
# =========================================================
# [209305] WRITE PASS: AWADDR = 0xba4, AWLEN = 31, BRESP = 0x0
# =========================================================
# [GEN_RANDOM] AXI Transaction:
# Read Channel : ARADDR = 0xaf8, ARLEN = 41
# =========================================================
# ** Error: Assertion error.
#    Time: 209365 ns Started: 209355 ns  Scope: AXI_top.assertion.assert_rvalid_stable File: AXI_assertions.sv Line: 61 Expr: $stable(RDATA)
# [210205] READ PASS: ARADDR = 0xaf8, ARLEN = 41, RRESP = 0x0
# =========================================================
# [GEN_RANDOM] AXI Transaction:
# Write Channel: AWADDR = 0x660, AWLEN = 195
# =========================================================
# [212235] WRITE PASS: AWADDR = 0x660, AWLEN = 195, BRESP = 0x0
# =========================================================
# [GEN_RANDOM] AXI Transaction:
# Read Channel : ARADDR = 0xa4, ARLEN = 24
# =========================================================
# ** Error: Assertion error.
#    Time: 212295 ns Started: 212285 ns  Scope: AXI_top.assertion.assert_rvalid_stable File: AXI_assertions.sv Line: 61 Expr: $stable(RDATA)
# [212795] READ PASS: ARADDR = 0xa4, ARLEN = 24, RRESP = 0x0
# =========================================================
# [GEN_RANDOM] AXI Transaction:
# Write Channel: AWADDR = 0x79c, AWLEN = 93
# =========================================================
# [213805] WRITE PASS: AWADDR = 0x79c, AWLEN = 93, BRESP = 0x0
# =========================================================
# [GEN_RANDOM] AXI Transaction:
# Write Channel: AWADDR = 0xa18, AWLEN = 101
# =========================================================
# [214895] WRITE PASS: AWADDR = 0xa18, AWLEN = 101, BRESP = 0x0
# =========================================================
# [GEN_RANDOM] AXI Transaction:
# Read Channel : ARADDR = 0xf54, ARLEN = 17
# =========================================================
# ** Error: Assertion error.
#    Time: 214955 ns Started: 214945 ns  Scope: AXI_top.assertion.assert_rvalid_stable File: AXI_assertions.sv Line: 61 Expr: $stable(RDATA)
# [215315] READ PASS: ARADDR = 0xf54, ARLEN = 17, RRESP = 0x0
# =========================================================
# [GEN_RANDOM] AXI Transaction:
# Write Channel: AWADDR = 0xed8, AWLEN = 136
# =========================================================
# [216755] WRITE PASS: AWADDR = 0xed8, AWLEN = 136, BRESP = 0x2
# =========================================================
# [GEN_RANDOM] AXI Transaction:
# Read Channel : ARADDR = 0x134, ARLEN = 246
# =========================================================
# ** Error: Assertion error.
#    Time: 216815 ns Started: 216805 ns  Scope: AXI_top.assertion.assert_rvalid_stable File: AXI_assertions.sv Line: 61 Expr: $stable(RDATA)
# [221755] READ PASS: ARADDR = 0x134, ARLEN = 246, RRESP = 0x0
# =========================================================
# [GEN_RANDOM] AXI Transaction:
# Read Channel : ARADDR = 0x874, ARLEN = 221
# =========================================================
# ** Error: Assertion error.
#    Time: 221815 ns Started: 221805 ns  Scope: AXI_top.assertion.assert_rvalid_stable File: AXI_assertions.sv Line: 61 Expr: $stable(RDATA)
# [226255] READ PASS: ARADDR = 0x874, ARLEN = 221, RRESP = 0x0
# =========================================================
# [GEN_RANDOM] AXI Transaction:
# Write Channel: AWADDR = 0x2b0, AWLEN = 232
# =========================================================
# [228655] WRITE PASS: AWADDR = 0x2b0, AWLEN = 232, BRESP = 0x0
# =========================================================
# [GEN_RANDOM] AXI Transaction:
# Read Channel : ARADDR = 0xf78, ARLEN = 53
# =========================================================
# [229795] READ PASS: ARADDR = 0xf78, ARLEN = 53, RRESP = 0x2
# =========================================================
# [GEN_RANDOM] AXI Transaction:
# Read Channel : ARADDR = 0xeb4, ARLEN = 144
# =========================================================
# [232755] READ PASS: ARADDR = 0xeb4, ARLEN = 144, RRESP = 0x2
# =========================================================
# [GEN_RANDOM] AXI Transaction:
# Write Channel: AWADDR = 0xb48, AWLEN = 93
# =========================================================
# [233765] WRITE PASS: AWADDR = 0xb48, AWLEN = 93, BRESP = 0x0
# =========================================================
# [GEN_RANDOM] AXI Transaction:
# Write Channel: AWADDR = 0x698, AWLEN = 124
# =========================================================
# [235085] WRITE PASS: AWADDR = 0x698, AWLEN = 124, BRESP = 0x0
# =========================================================
# [GEN_RANDOM] AXI Transaction:
# Write Channel: AWADDR = 0x98, AWLEN = 61
# =========================================================
# [235775] WRITE PASS: AWADDR = 0x98, AWLEN = 61, BRESP = 0x0
# =========================================================
# [GEN_RANDOM] AXI Transaction:
# Read Channel : ARADDR = 0xb00, ARLEN = 161
# =========================================================
# ** Error: Assertion error.
#    Time: 235835 ns Started: 235825 ns  Scope: AXI_top.assertion.assert_rvalid_stable File: AXI_assertions.sv Line: 61 Expr: $stable(RDATA)
# [239075] READ PASS: ARADDR = 0xb00, ARLEN = 161, RRESP = 0x2
# =========================================================
# [GEN_RANDOM] AXI Transaction:
# Read Channel : ARADDR = 0x8d8, ARLEN = 129
# =========================================================
# ** Error: Assertion error.
#    Time: 239135 ns Started: 239125 ns  Scope: AXI_top.assertion.assert_rvalid_stable File: AXI_assertions.sv Line: 61 Expr: $stable(RDATA)
# [241735] READ PASS: ARADDR = 0x8d8, ARLEN = 129, RRESP = 0x0
# =========================================================
# [GEN_RANDOM] AXI Transaction:
# Read Channel : ARADDR = 0x730, ARLEN = 19
# =========================================================
# ** Error: Assertion error.
#    Time: 241795 ns Started: 241785 ns  Scope: AXI_top.assertion.assert_rvalid_stable File: AXI_assertions.sv Line: 61 Expr: $stable(RDATA)
# [242195] READ PASS: ARADDR = 0x730, ARLEN = 19, RRESP = 0x0
# =========================================================
# [GEN_RANDOM] AXI Transaction:
# Write Channel: AWADDR = 0x80, AWLEN = 123
# =========================================================
# [243505] WRITE PASS: AWADDR = 0x80, AWLEN = 123, BRESP = 0x0
# =========================================================
# [GEN_RANDOM] AXI Transaction:
# Write Channel: AWADDR = 0x458, AWLEN = 47
# =========================================================
# [244055] WRITE PASS: AWADDR = 0x458, AWLEN = 47, BRESP = 0x0
# =========================================================
# [GEN_RANDOM] AXI Transaction:
# Read Channel : ARADDR = 0xcdc, ARLEN = 211
# =========================================================
# [248355] READ PASS: ARADDR = 0xcdc, ARLEN = 211, RRESP = 0x2
# =========================================================
# [GEN_RANDOM] AXI Transaction:
# Read Channel : ARADDR = 0x5bc, ARLEN = 103
# =========================================================
# ** Error: Assertion error.
#    Time: 248415 ns Started: 248405 ns  Scope: AXI_top.assertion.assert_rvalid_stable File: AXI_assertions.sv Line: 61 Expr: $stable(RDATA)
# [250495] READ PASS: ARADDR = 0x5bc, ARLEN = 103, RRESP = 0x0
# =========================================================
# [GEN_RANDOM] AXI Transaction:
# Read Channel : ARADDR = 0x38c, ARLEN = 77
# =========================================================
# ** Error: Assertion error.
#    Time: 250555 ns Started: 250545 ns  Scope: AXI_top.assertion.assert_rvalid_stable File: AXI_assertions.sv Line: 61 Expr: $stable(RDATA)
# [252115] READ PASS: ARADDR = 0x38c, ARLEN = 77, RRESP = 0x0
# =========================================================
# [GEN_RANDOM] AXI Transaction:
# Write Channel: AWADDR = 0xd98, AWLEN = 150
# =========================================================
# [253695] WRITE PASS: AWADDR = 0xd98, AWLEN = 150, BRESP = 0x2
# =========================================================
# [GEN_RANDOM] AXI Transaction:
# Read Channel : ARADDR = 0xc28, ARLEN = 238
# =========================================================
# ** Error: Assertion error.
#    Time: 253755 ns Started: 253745 ns  Scope: AXI_top.assertion.assert_rvalid_stable File: AXI_assertions.sv Line: 61 Expr: $stable(RDATA)
# [258535] READ PASS: ARADDR = 0xc28, ARLEN = 238, RRESP = 0x2
# =========================================================
# [GEN_RANDOM] AXI Transaction:
# Read Channel : ARADDR = 0x354, ARLEN = 229
# =========================================================
# ** Error: Assertion error.
#    Time: 258595 ns Started: 258585 ns  Scope: AXI_top.assertion.assert_rvalid_stable File: AXI_assertions.sv Line: 61 Expr: $stable(RDATA)
# [263195] READ PASS: ARADDR = 0x354, ARLEN = 229, RRESP = 0x0
# =========================================================
# [GEN_RANDOM] AXI Transaction:
# Read Channel : ARADDR = 0x140, ARLEN = 195
# =========================================================
# ** Error: Assertion error.
#    Time: 263255 ns Started: 263245 ns  Scope: AXI_top.assertion.assert_rvalid_stable File: AXI_assertions.sv Line: 61 Expr: $stable(RDATA)
# [267175] READ PASS: ARADDR = 0x140, ARLEN = 195, RRESP = 0x0
# =========================================================
# [GEN_RANDOM] AXI Transaction:
# Write Channel: AWADDR = 0x5c4, AWLEN = 180
# =========================================================
# [269055] WRITE PASS: AWADDR = 0x5c4, AWLEN = 180, BRESP = 0x0
# =========================================================
# [GEN_RANDOM] AXI Transaction:
# Write Channel: AWADDR = 0x1d8, AWLEN = 22
# =========================================================
# [269355] WRITE PASS: AWADDR = 0x1d8, AWLEN = 22, BRESP = 0x0
# =========================================================
# [GEN_RANDOM] AXI Transaction:
# Read Channel : ARADDR = 0x6a4, ARLEN = 252
# =========================================================
# ** Error: Assertion error.
#    Time: 269415 ns Started: 269405 ns  Scope: AXI_top.assertion.assert_rvalid_stable File: AXI_assertions.sv Line: 61 Expr: $stable(RDATA)
# [274475] READ PASS: ARADDR = 0x6a4, ARLEN = 252, RRESP = 0x0
# =========================================================
# [GEN_RANDOM] AXI Transaction:
# Write Channel: AWADDR = 0xbe8, AWLEN = 113
# =========================================================
# [275685] WRITE PASS: AWADDR = 0xbe8, AWLEN = 113, BRESP = 0x0
# =========================================================
# [GEN_RANDOM] AXI Transaction:
# Read Channel : ARADDR = 0xdb4, ARLEN = 52
# =========================================================
# ** Error: Assertion error.
#    Time: 275745 ns Started: 275735 ns  Scope: AXI_top.assertion.assert_rvalid_stable File: AXI_assertions.sv Line: 61 Expr: $stable(RDATA)
# [276805] READ PASS: ARADDR = 0xdb4, ARLEN = 52, RRESP = 0x0
# =========================================================
# [GEN_RANDOM] AXI Transaction:
# Write Channel: AWADDR = 0x468, AWLEN = 51
# =========================================================
# [277395] WRITE PASS: AWADDR = 0x468, AWLEN = 51, BRESP = 0x0
# =========================================================
# [GEN_RANDOM] AXI Transaction:
# Write Channel: AWADDR = 0x33c, AWLEN = 69
# =========================================================
# [278165] WRITE PASS: AWADDR = 0x33c, AWLEN = 69, BRESP = 0x0
# =========================================================
# [GEN_RANDOM] AXI Transaction:
# Read Channel : ARADDR = 0xc88, ARLEN = 181
# =========================================================
# ** Error: Assertion error.
#    Time: 278225 ns Started: 278215 ns  Scope: AXI_top.assertion.assert_rvalid_stable File: AXI_assertions.sv Line: 61 Expr: $stable(RDATA)
# [281865] READ PASS: ARADDR = 0xc88, ARLEN = 181, RRESP = 0x2
# =========================================================
# [GEN_RANDOM] AXI Transaction:
# Write Channel: AWADDR = 0xb34, AWLEN = 174
# =========================================================
# [283685] WRITE PASS: AWADDR = 0xb34, AWLEN = 174, BRESP = 0x2
# =========================================================
# [GEN_RANDOM] AXI Transaction:
# Write Channel: AWADDR = 0x314, AWLEN = 43
# =========================================================
# [284195] WRITE PASS: AWADDR = 0x314, AWLEN = 43, BRESP = 0x0
# =========================================================
# [GEN_RANDOM] AXI Transaction:
# Write Channel: AWADDR = 0x814, AWLEN = 143
# =========================================================
# [285705] WRITE PASS: AWADDR = 0x814, AWLEN = 143, BRESP = 0x0
# =========================================================
# [GEN_RANDOM] AXI Transaction:
# Write Channel: AWADDR = 0xf60, AWLEN = 42
# =========================================================
# [286205] WRITE PASS: AWADDR = 0xf60, AWLEN = 42, BRESP = 0x2
# =========================================================
# [GEN_RANDOM] AXI Transaction:
# Write Channel: AWADDR = 0xbf0, AWLEN = 53
# =========================================================
# [286815] WRITE PASS: AWADDR = 0xbf0, AWLEN = 53, BRESP = 0x0
# =========================================================
# [GEN_RANDOM] AXI Transaction:
# Read Channel : ARADDR = 0x204, ARLEN = 58
# =========================================================
# ** Error: Assertion error.
#    Time: 286875 ns Started: 286865 ns  Scope: AXI_top.assertion.assert_rvalid_stable File: AXI_assertions.sv Line: 61 Expr: $stable(RDATA)
# [288055] READ PASS: ARADDR = 0x204, ARLEN = 58, RRESP = 0x0
# =========================================================
# [GEN_RANDOM] AXI Transaction:
# Write Channel: AWADDR = 0x324, AWLEN = 115
# =========================================================
# [289285] WRITE PASS: AWADDR = 0x324, AWLEN = 115, BRESP = 0x0
# =========================================================
# [GEN_RANDOM] AXI Transaction:
# Read Channel : ARADDR = 0x470, ARLEN = 235
# =========================================================
# ** Error: Assertion error.
#    Time: 289345 ns Started: 289335 ns  Scope: AXI_top.assertion.assert_rvalid_stable File: AXI_assertions.sv Line: 61 Expr: $stable(RDATA)
# [294065] READ PASS: ARADDR = 0x470, ARLEN = 235, RRESP = 0x0
# =========================================================
# [GEN_RANDOM] AXI Transaction:
# Write Channel: AWADDR = 0x230, AWLEN = 207
# =========================================================
# [296215] WRITE PASS: AWADDR = 0x230, AWLEN = 207, BRESP = 0x0
# =========================================================
# [GEN_RANDOM] AXI Transaction:
# Read Channel : ARADDR = 0xb2c, ARLEN = 185
# =========================================================
# ** Error: Assertion error.
#    Time: 296275 ns Started: 296265 ns  Scope: AXI_top.assertion.assert_rvalid_stable File: AXI_assertions.sv Line: 61 Expr: $stable(RDATA)
# [299995] READ PASS: ARADDR = 0xb2c, ARLEN = 185, RRESP = 0x2
# =========================================================
# [GEN_RANDOM] AXI Transaction:
# Read Channel : ARADDR = 0x3b0, ARLEN = 120
# =========================================================
# ** Error: Assertion error.
#    Time: 300055 ns Started: 300045 ns  Scope: AXI_top.assertion.assert_rvalid_stable File: AXI_assertions.sv Line: 61 Expr: $stable(RDATA)
# [302475] READ PASS: ARADDR = 0x3b0, ARLEN = 120, RRESP = 0x0
# =========================================================
# [GEN_RANDOM] AXI Transaction:
# Write Channel: AWADDR = 0xd78, AWLEN = 142
# =========================================================
# [303975] WRITE PASS: AWADDR = 0xd78, AWLEN = 142, BRESP = 0x2
# =========================================================
# [GEN_RANDOM] AXI Transaction:
# Write Channel: AWADDR = 0xde8, AWLEN = 12
# =========================================================
# [304175] WRITE PASS: AWADDR = 0xde8, AWLEN = 12, BRESP = 0x0
# =========================================================
# [GEN_RANDOM] AXI Transaction:
# Read Channel : ARADDR = 0x658, ARLEN = 12
# =========================================================
# ** Error: Assertion error.
#    Time: 304235 ns Started: 304225 ns  Scope: AXI_top.assertion.assert_rvalid_stable File: AXI_assertions.sv Line: 61 Expr: $stable(RDATA)
# [304495] READ PASS: ARADDR = 0x658, ARLEN = 12, RRESP = 0x0
# =========================================================
# [GEN_RANDOM] AXI Transaction:
# Read Channel : ARADDR = 0x1c8, ARLEN = 71
# =========================================================
# ** Error: Assertion error.
#    Time: 304555 ns Started: 304545 ns  Scope: AXI_top.assertion.assert_rvalid_stable File: AXI_assertions.sv Line: 61 Expr: $stable(RDATA)
# [305995] READ PASS: ARADDR = 0x1c8, ARLEN = 71, RRESP = 0x0
# =========================================================
# [GEN_RANDOM] AXI Transaction:
# Write Channel: AWADDR = 0x350, AWLEN = 198
# =========================================================
# [308055] WRITE PASS: AWADDR = 0x350, AWLEN = 198, BRESP = 0x0
# =========================================================
# [GEN_RANDOM] AXI Transaction:
# Write Channel: AWADDR = 0x248, AWLEN = 49
# =========================================================
# [308625] WRITE PASS: AWADDR = 0x248, AWLEN = 49, BRESP = 0x0
# =========================================================
# [GEN_RANDOM] AXI Transaction:
# Read Channel : ARADDR = 0x9ec, ARLEN = 220
# =========================================================
# ** Error: Assertion error.
#    Time: 308685 ns Started: 308675 ns  Scope: AXI_top.assertion.assert_rvalid_stable File: AXI_assertions.sv Line: 61 Expr: $stable(RDATA)
# [313105] READ PASS: ARADDR = 0x9ec, ARLEN = 220, RRESP = 0x2
# =========================================================
# [GEN_RANDOM] AXI Transaction:
# Read Channel : ARADDR = 0xa30, ARLEN = 35
# =========================================================
# ** Error: Assertion error.
#    Time: 313165 ns Started: 313155 ns  Scope: AXI_top.assertion.assert_rvalid_stable File: AXI_assertions.sv Line: 61 Expr: $stable(RDATA)
# [313885] READ PASS: ARADDR = 0xa30, ARLEN = 35, RRESP = 0x0
# =========================================================
# [GEN_RANDOM] AXI Transaction:
# Read Channel : ARADDR = 0x97c, ARLEN = 79
# =========================================================
# ** Error: Assertion error.
#    Time: 313945 ns Started: 313935 ns  Scope: AXI_top.assertion.assert_rvalid_stable File: AXI_assertions.sv Line: 61 Expr: $stable(RDATA)
# [315545] READ PASS: ARADDR = 0x97c, ARLEN = 79, RRESP = 0x0
# =========================================================
# [GEN_RANDOM] AXI Transaction:
# Read Channel : ARADDR = 0xc1c, ARLEN = 210
# =========================================================
# ** Error: Assertion error.
#    Time: 315605 ns Started: 315595 ns  Scope: AXI_top.assertion.assert_rvalid_stable File: AXI_assertions.sv Line: 61 Expr: $stable(RDATA)
# [319825] READ PASS: ARADDR = 0xc1c, ARLEN = 210, RRESP = 0x2
# =========================================================
# [GEN_RANDOM] AXI Transaction:
# Read Channel : ARADDR = 0xb4, ARLEN = 251
# =========================================================
# ** Error: Assertion error.
#    Time: 319885 ns Started: 319875 ns  Scope: AXI_top.assertion.assert_rvalid_stable File: AXI_assertions.sv Line: 61 Expr: $stable(RDATA)
# [324925] READ PASS: ARADDR = 0xb4, ARLEN = 251, RRESP = 0x0
# =========================================================
# [GEN_RANDOM] AXI Transaction:
# Write Channel: AWADDR = 0xa28, AWLEN = 194
# =========================================================
# [326945] WRITE PASS: AWADDR = 0xa28, AWLEN = 194, BRESP = 0x2
# =========================================================
# [GEN_RANDOM] AXI Transaction:
# Write Channel: AWADDR = 0xfb4, AWLEN = 187
# =========================================================
# [328895] WRITE PASS: AWADDR = 0xfb4, AWLEN = 187, BRESP = 0x2
# =========================================================
# [GEN_RANDOM] AXI Transaction:
# Read Channel : ARADDR = 0xd3c, ARLEN = 137
# =========================================================
# ** Error: Assertion error.
#    Time: 328955 ns Started: 328945 ns  Scope: AXI_top.assertion.assert_rvalid_stable File: AXI_assertions.sv Line: 61 Expr: $stable(RDATA)
# [331715] READ PASS: ARADDR = 0xd3c, ARLEN = 137, RRESP = 0x2
# =========================================================
# [GEN_RANDOM] AXI Transaction:
# Write Channel: AWADDR = 0x920, AWLEN = 224
# =========================================================
# [334035] WRITE PASS: AWADDR = 0x920, AWLEN = 224, BRESP = 0x2
# =========================================================
# [GEN_RANDOM] AXI Transaction:
# Read Channel : ARADDR = 0x8d0, ARLEN = 25
# =========================================================
# ** Error: Assertion error.
#    Time: 334095 ns Started: 334085 ns  Scope: AXI_top.assertion.assert_rvalid_stable File: AXI_assertions.sv Line: 61 Expr: $stable(RDATA)
# [334615] READ PASS: ARADDR = 0x8d0, ARLEN = 25, RRESP = 0x0
# =========================================================
# [GEN_RANDOM] AXI Transaction:
# Write Channel: AWADDR = 0x388, AWLEN = 154
# =========================================================
# [336235] WRITE PASS: AWADDR = 0x388, AWLEN = 154, BRESP = 0x0
# =========================================================
# [GEN_RANDOM] AXI Transaction:
# Write Channel: AWADDR = 0x9b0, AWLEN = 37
# =========================================================
# [336685] WRITE PASS: AWADDR = 0x9b0, AWLEN = 37, BRESP = 0x0
# =========================================================
# [GEN_RANDOM] AXI Transaction:
# Write Channel: AWADDR = 0x2ec, AWLEN = 170
# =========================================================
# [338465] WRITE PASS: AWADDR = 0x2ec, AWLEN = 170, BRESP = 0x0
# =========================================================
# [GEN_RANDOM] AXI Transaction:
# Write Channel: AWADDR = 0x840, AWLEN = 183
# =========================================================
# [340375] WRITE PASS: AWADDR = 0x840, AWLEN = 183, BRESP = 0x0
# =========================================================
# [GEN_RANDOM] AXI Transaction:
# Write Channel: AWADDR = 0x6c, AWLEN = 63
# =========================================================
# [341085] WRITE PASS: AWADDR = 0x6c, AWLEN = 63, BRESP = 0x0
# =========================================================
# [GEN_RANDOM] AXI Transaction:
# Write Channel: AWADDR = 0x330, AWLEN = 218
# =========================================================
# [343345] WRITE PASS: AWADDR = 0x330, AWLEN = 218, BRESP = 0x0
# =========================================================
# [GEN_RANDOM] AXI Transaction:
# Read Channel : ARADDR = 0xfc0, ARLEN = 83
# =========================================================
# [345085] READ PASS: ARADDR = 0xfc0, ARLEN = 83, RRESP = 0x2
# =========================================================
# [GEN_RANDOM] AXI Transaction:
# Read Channel : ARADDR = 0xdbc, ARLEN = 137
# =========================================================
# ** Error: Assertion error.
#    Time: 345145 ns Started: 345135 ns  Scope: AXI_top.assertion.assert_rvalid_stable File: AXI_assertions.sv Line: 61 Expr: $stable(RDATA)
# [347905] READ PASS: ARADDR = 0xdbc, ARLEN = 137, RRESP = 0x2
# =========================================================
# [GEN_RANDOM] AXI Transaction:
# Read Channel : ARADDR = 0xe38, ARLEN = 226
# =========================================================
# [352505] READ PASS: ARADDR = 0xe38, ARLEN = 226, RRESP = 0x2
# =========================================================
# [GEN_RANDOM] AXI Transaction:
# Write Channel: AWADDR = 0x500, AWLEN = 230
# =========================================================
# [354885] WRITE PASS: AWADDR = 0x500, AWLEN = 230, BRESP = 0x0
# =========================================================
# [GEN_RANDOM] AXI Transaction:
# Write Channel: AWADDR = 0xcec, AWLEN = 143
# =========================================================
# [356395] WRITE PASS: AWADDR = 0xcec, AWLEN = 143, BRESP = 0x2
# =========================================================
# [GEN_RANDOM] AXI Transaction:
# Read Channel : ARADDR = 0x958, ARLEN = 49
# =========================================================
# ** Error: Assertion error.
#    Time: 356455 ns Started: 356445 ns  Scope: AXI_top.assertion.assert_rvalid_stable File: AXI_assertions.sv Line: 61 Expr: $stable(RDATA)
# [357455] READ PASS: ARADDR = 0x958, ARLEN = 49, RRESP = 0x0
# =========================================================
# [GEN_RANDOM] AXI Transaction:
# Write Channel: AWADDR = 0x780, AWLEN = 20
# =========================================================
# [357735] WRITE PASS: AWADDR = 0x780, AWLEN = 20, BRESP = 0x0
# =========================================================
# [GEN_RANDOM] AXI Transaction:
# Read Channel : ARADDR = 0x570, ARLEN = 180
# =========================================================
# ** Error: Assertion error.
#    Time: 357795 ns Started: 357785 ns  Scope: AXI_top.assertion.assert_rvalid_stable File: AXI_assertions.sv Line: 61 Expr: $stable(RDATA)
# [361415] READ PASS: ARADDR = 0x570, ARLEN = 180, RRESP = 0x0
# =========================================================
# [GEN_RANDOM] AXI Transaction:
# Write Channel: AWADDR = 0x4a4, AWLEN = 126
# =========================================================
# [362755] WRITE PASS: AWADDR = 0x4a4, AWLEN = 126, BRESP = 0x0
# =========================================================
# [GEN_RANDOM] AXI Transaction:
# Read Channel : ARADDR = 0x8f0, ARLEN = 165
# =========================================================
# ** Error: Assertion error.
#    Time: 362815 ns Started: 362805 ns  Scope: AXI_top.assertion.assert_rvalid_stable File: AXI_assertions.sv Line: 61 Expr: $stable(RDATA)
# [366135] READ PASS: ARADDR = 0x8f0, ARLEN = 165, RRESP = 0x0
# =========================================================
# [GEN_RANDOM] AXI Transaction:
# Write Channel: AWADDR = 0x2b0, AWLEN = 28
# =========================================================
# [366495] WRITE PASS: AWADDR = 0x2b0, AWLEN = 28, BRESP = 0x0
# =========================================================
# [GEN_RANDOM] AXI Transaction:
# Write Channel: AWADDR = 0xe9c, AWLEN = 94
# =========================================================
# [367515] WRITE PASS: AWADDR = 0xe9c, AWLEN = 94, BRESP = 0x2
# =========================================================
# [GEN_RANDOM] AXI Transaction:
# Write Channel: AWADDR = 0x4d0, AWLEN = 13
# =========================================================
# [367725] WRITE PASS: AWADDR = 0x4d0, AWLEN = 13, BRESP = 0x0
# =========================================================
# [GEN_RANDOM] AXI Transaction:
# Write Channel: AWADDR = 0xf9c, AWLEN = 12
# =========================================================
# [367925] WRITE PASS: AWADDR = 0xf9c, AWLEN = 12, BRESP = 0x0
# =========================================================
# [GEN_RANDOM] AXI Transaction:
# Read Channel : ARADDR = 0x470, ARLEN = 121
# =========================================================
# ** Error: Assertion error.
#    Time: 367985 ns Started: 367975 ns  Scope: AXI_top.assertion.assert_rvalid_stable File: AXI_assertions.sv Line: 61 Expr: $stable(RDATA)
# [370425] READ PASS: ARADDR = 0x470, ARLEN = 121, RRESP = 0x0
# =========================================================
# [GEN_RANDOM] AXI Transaction:
# Read Channel : ARADDR = 0x62c, ARLEN = 2
# =========================================================
# ** Error: Assertion error.
#    Time: 370485 ns Started: 370475 ns  Scope: AXI_top.assertion.assert_rvalid_stable File: AXI_assertions.sv Line: 61 Expr: $stable(RDATA)
# [370545] READ PASS: ARADDR = 0x62c, ARLEN = 2, RRESP = 0x0
# =========================================================
# [GEN_RANDOM] AXI Transaction:
# Write Channel: AWADDR = 0x5d0, AWLEN = 148
# =========================================================
# [372105] WRITE PASS: AWADDR = 0x5d0, AWLEN = 148, BRESP = 0x0
# =========================================================
# [GEN_RANDOM] AXI Transaction:
# Read Channel : ARADDR = 0x8f8, ARLEN = 139
# =========================================================
# ** Error: Assertion error.
#    Time: 372165 ns Started: 372155 ns  Scope: AXI_top.assertion.assert_rvalid_stable File: AXI_assertions.sv Line: 61 Expr: $stable(RDATA)
# [374965] READ PASS: ARADDR = 0x8f8, ARLEN = 139, RRESP = 0x0
# =========================================================
# [GEN_RANDOM] AXI Transaction:
# Write Channel: AWADDR = 0xcac, AWLEN = 52
# =========================================================
# [375565] WRITE PASS: AWADDR = 0xcac, AWLEN = 52, BRESP = 0x0
# =========================================================
# [GEN_RANDOM] AXI Transaction:
# Write Channel: AWADDR = 0x1e0, AWLEN = 173
# =========================================================
# [377375] WRITE PASS: AWADDR = 0x1e0, AWLEN = 173, BRESP = 0x0
# =========================================================
# [GEN_RANDOM] AXI Transaction:
# Write Channel: AWADDR = 0xef8, AWLEN = 246
# =========================================================
# [379915] WRITE PASS: AWADDR = 0xef8, AWLEN = 246, BRESP = 0x2
# =========================================================
# [GEN_RANDOM] AXI Transaction:
# Write Channel: AWADDR = 0x90, AWLEN = 1
# =========================================================
# [380005] WRITE PASS: AWADDR = 0x90, AWLEN = 1, BRESP = 0x0
# =========================================================
# [GEN_RANDOM] AXI Transaction:
# Write Channel: AWADDR = 0x33c, AWLEN = 143
# =========================================================
# [381515] WRITE PASS: AWADDR = 0x33c, AWLEN = 143, BRESP = 0x0
# =========================================================
# [GEN_RANDOM] AXI Transaction:
# Read Channel : ARADDR = 0x260, ARLEN = 226
# =========================================================
# ** Error: Assertion error.
#    Time: 381575 ns Started: 381565 ns  Scope: AXI_top.assertion.assert_rvalid_stable File: AXI_assertions.sv Line: 61 Expr: $stable(RDATA)
# [386115] READ PASS: ARADDR = 0x260, ARLEN = 226, RRESP = 0x0
# =========================================================
# [GEN_RANDOM] AXI Transaction:
# Read Channel : ARADDR = 0xf74, ARLEN = 191
# =========================================================
# [390015] READ PASS: ARADDR = 0xf74, ARLEN = 191, RRESP = 0x2
# =========================================================
# [GEN_RANDOM] AXI Transaction:
# Read Channel : ARADDR = 0x798, ARLEN = 99
# =========================================================
# ** Error: Assertion error.
#    Time: 390075 ns Started: 390065 ns  Scope: AXI_top.assertion.assert_rvalid_stable File: AXI_assertions.sv Line: 61 Expr: $stable(RDATA)
# [392075] READ PASS: ARADDR = 0x798, ARLEN = 99, RRESP = 0x0
# =========================================================
# [GEN_RANDOM] AXI Transaction:
# Write Channel: AWADDR = 0x268, AWLEN = 20
# =========================================================
# [392355] WRITE PASS: AWADDR = 0x268, AWLEN = 20, BRESP = 0x0
# =========================================================
# [GEN_RANDOM] AXI Transaction:
# Write Channel: AWADDR = 0x374, AWLEN = 178
# =========================================================
# [394215] WRITE PASS: AWADDR = 0x374, AWLEN = 178, BRESP = 0x0
# =========================================================
# [GEN_RANDOM] AXI Transaction:
# Write Channel: AWADDR = 0x828, AWLEN = 199
# =========================================================
# [396285] WRITE PASS: AWADDR = 0x828, AWLEN = 199, BRESP = 0x0
# =========================================================
# [GEN_RANDOM] AXI Transaction:
# Write Channel: AWADDR = 0xa60, AWLEN = 37
# =========================================================
# [396735] WRITE PASS: AWADDR = 0xa60, AWLEN = 37, BRESP = 0x0
# =========================================================
# [GEN_RANDOM] AXI Transaction:
# Write Channel: AWADDR = 0x480, AWLEN = 197
# =========================================================
# [398785] WRITE PASS: AWADDR = 0x480, AWLEN = 197, BRESP = 0x0
# =========================================================
# [GEN_RANDOM] AXI Transaction:
# Write Channel: AWADDR = 0xa50, AWLEN = 183
# =========================================================
# [400695] WRITE PASS: AWADDR = 0xa50, AWLEN = 183, BRESP = 0x2
# =========================================================
# [GEN_RANDOM] AXI Transaction:
# Write Channel: AWADDR = 0x620, AWLEN = 195
# =========================================================
# [402725] WRITE PASS: AWADDR = 0x620, AWLEN = 195, BRESP = 0x0
# =========================================================
# [GEN_RANDOM] AXI Transaction:
# Write Channel: AWADDR = 0x36c, AWLEN = 208
# =========================================================
# [404885] WRITE PASS: AWADDR = 0x36c, AWLEN = 208, BRESP = 0x0
# =========================================================
# [GEN_RANDOM] AXI Transaction:
# Read Channel : ARADDR = 0x9f4, ARLEN = 215
# =========================================================
# ** Error: Assertion error.
#    Time: 404945 ns Started: 404935 ns  Scope: AXI_top.assertion.assert_rvalid_stable File: AXI_assertions.sv Line: 61 Expr: $stable(RDATA)
# [409265] READ PASS: ARADDR = 0x9f4, ARLEN = 215, RRESP = 0x2
# =========================================================
# [GEN_RANDOM] AXI Transaction:
# Read Channel : ARADDR = 0xfd8, ARLEN = 104
# =========================================================
# [411425] READ PASS: ARADDR = 0xfd8, ARLEN = 104, RRESP = 0x2
# =========================================================
# [GEN_RANDOM] AXI Transaction:
# Read Channel : ARADDR = 0xf68, ARLEN = 85
# =========================================================
# [413205] READ PASS: ARADDR = 0xf68, ARLEN = 85, RRESP = 0x2
# =========================================================
# [GEN_RANDOM] AXI Transaction:
# Read Channel : ARADDR = 0xf24, ARLEN = 4
# =========================================================
# ** Error: Assertion error.
#    Time: 413265 ns Started: 413255 ns  Scope: AXI_top.assertion.assert_rvalid_stable File: AXI_assertions.sv Line: 61 Expr: $stable(RDATA)
# [413365] READ PASS: ARADDR = 0xf24, ARLEN = 4, RRESP = 0x0
# =========================================================
# [GEN_RANDOM] AXI Transaction:
# Read Channel : ARADDR = 0x228, ARLEN = 150
# =========================================================
# ** Error: Assertion error.
#    Time: 413425 ns Started: 413415 ns  Scope: AXI_top.assertion.assert_rvalid_stable File: AXI_assertions.sv Line: 61 Expr: $stable(RDATA)
# [416445] READ PASS: ARADDR = 0x228, ARLEN = 150, RRESP = 0x0
# =========================================================
# [GEN_RANDOM] AXI Transaction:
# Read Channel : ARADDR = 0x9e8, ARLEN = 89
# =========================================================
# ** Error: Assertion error.
#    Time: 416505 ns Started: 416495 ns  Scope: AXI_top.assertion.assert_rvalid_stable File: AXI_assertions.sv Line: 61 Expr: $stable(RDATA)
# [418305] READ PASS: ARADDR = 0x9e8, ARLEN = 89, RRESP = 0x0
# =========================================================
# [GEN_RANDOM] AXI Transaction:
# Write Channel: AWADDR = 0xd64, AWLEN = 101
# =========================================================
# [419395] WRITE PASS: AWADDR = 0xd64, AWLEN = 101, BRESP = 0x2
# =========================================================
# [GEN_RANDOM] AXI Transaction:
# Read Channel : ARADDR = 0x73c, ARLEN = 81
# =========================================================
# ** Error: Assertion error.
#    Time: 419455 ns Started: 419445 ns  Scope: AXI_top.assertion.assert_rvalid_stable File: AXI_assertions.sv Line: 61 Expr: $stable(RDATA)
# [421095] READ PASS: ARADDR = 0x73c, ARLEN = 81, RRESP = 0x0
# =========================================================
# [GEN_RANDOM] AXI Transaction:
# Write Channel: AWADDR = 0x6dc, AWLEN = 23
# =========================================================
# [421405] WRITE PASS: AWADDR = 0x6dc, AWLEN = 23, BRESP = 0x0
# =========================================================
# [GEN_RANDOM] AXI Transaction:
# Read Channel : ARADDR = 0xb8c, ARLEN = 36
# =========================================================
# ** Error: Assertion error.
#    Time: 421465 ns Started: 421455 ns  Scope: AXI_top.assertion.assert_rvalid_stable File: AXI_assertions.sv Line: 61 Expr: $stable(RDATA)
# [422205] READ PASS: ARADDR = 0xb8c, ARLEN = 36, RRESP = 0x0
# =========================================================
# [GEN_RANDOM] AXI Transaction:
# Write Channel: AWADDR = 0x7fc, AWLEN = 110
# =========================================================
# [423385] WRITE PASS: AWADDR = 0x7fc, AWLEN = 110, BRESP = 0x0
# =========================================================
# [GEN_RANDOM] AXI Transaction:
# Read Channel : ARADDR = 0x738, ARLEN = 154
# =========================================================
# ** Error: Assertion error.
#    Time: 423445 ns Started: 423435 ns  Scope: AXI_top.assertion.assert_rvalid_stable File: AXI_assertions.sv Line: 61 Expr: $stable(RDATA)
# [426545] READ PASS: ARADDR = 0x738, ARLEN = 154, RRESP = 0x0
# =========================================================
# [GEN_RANDOM] AXI Transaction:
# Write Channel: AWADDR = 0x230, AWLEN = 216
# =========================================================
# [428785] WRITE PASS: AWADDR = 0x230, AWLEN = 216, BRESP = 0x0
# =========================================================
# [GEN_RANDOM] AXI Transaction:
# Write Channel: AWADDR = 0xf78, AWLEN = 132
# =========================================================
# [430185] WRITE PASS: AWADDR = 0xf78, AWLEN = 132, BRESP = 0x2
# =========================================================
# [GEN_RANDOM] AXI Transaction:
# Write Channel: AWADDR = 0xfc4, AWLEN = 87
# =========================================================
# [431135] WRITE PASS: AWADDR = 0xfc4, AWLEN = 87, BRESP = 0x2
# =========================================================
# [GEN_RANDOM] AXI Transaction:
# Read Channel : ARADDR = 0x4f0, ARLEN = 203
# =========================================================
# ** Error: Assertion error.
#    Time: 431195 ns Started: 431185 ns  Scope: AXI_top.assertion.assert_rvalid_stable File: AXI_assertions.sv Line: 61 Expr: $stable(RDATA)
# [435275] READ PASS: ARADDR = 0x4f0, ARLEN = 203, RRESP = 0x0
# =========================================================
# [GEN_RANDOM] AXI Transaction:
# Read Channel : ARADDR = 0x628, ARLEN = 60
# =========================================================
# ** Error: Assertion error.
#    Time: 435335 ns Started: 435325 ns  Scope: AXI_top.assertion.assert_rvalid_stable File: AXI_assertions.sv Line: 61 Expr: $stable(RDATA)
# [436555] READ PASS: ARADDR = 0x628, ARLEN = 60, RRESP = 0x0
# =========================================================
# [GEN_RANDOM] AXI Transaction:
# Write Channel: AWADDR = 0x148, AWLEN = 37
# =========================================================
# [437005] WRITE PASS: AWADDR = 0x148, AWLEN = 37, BRESP = 0x0
# =========================================================
# [GEN_RANDOM] AXI Transaction:
# Write Channel: AWADDR = 0x790, AWLEN = 133
# =========================================================
# [438415] WRITE PASS: AWADDR = 0x790, AWLEN = 133, BRESP = 0x0
# =========================================================
# [GEN_RANDOM] AXI Transaction:
# Read Channel : ARADDR = 0xfd0, ARLEN = 86
# =========================================================
# [440215] READ PASS: ARADDR = 0xfd0, ARLEN = 86, RRESP = 0x2
# =========================================================
# [GEN_RANDOM] AXI Transaction:
# Write Channel: AWADDR = 0x184, AWLEN = 104
# =========================================================
# [441335] WRITE PASS: AWADDR = 0x184, AWLEN = 104, BRESP = 0x0
# =========================================================
# [GEN_RANDOM] AXI Transaction:
# Read Channel : ARADDR = 0x9e8, ARLEN = 206
# =========================================================
# ** Error: Assertion error.
#    Time: 441395 ns Started: 441385 ns  Scope: AXI_top.assertion.assert_rvalid_stable File: AXI_assertions.sv Line: 61 Expr: $stable(RDATA)
# [445535] READ PASS: ARADDR = 0x9e8, ARLEN = 206, RRESP = 0x2
# =========================================================
# [GEN_RANDOM] AXI Transaction:
# Write Channel: AWADDR = 0x264, AWLEN = 228
# =========================================================
# [447895] WRITE PASS: AWADDR = 0x264, AWLEN = 228, BRESP = 0x0
# =========================================================
# [GEN_RANDOM] AXI Transaction:
# Read Channel : ARADDR = 0x414, ARLEN = 39
# =========================================================
# ** Error: Assertion error.
#    Time: 447955 ns Started: 447945 ns  Scope: AXI_top.assertion.assert_rvalid_stable File: AXI_assertions.sv Line: 61 Expr: $stable(RDATA)
# [448755] READ PASS: ARADDR = 0x414, ARLEN = 39, RRESP = 0x0
# =========================================================
# [GEN_RANDOM] AXI Transaction:
# Read Channel : ARADDR = 0xd18, ARLEN = 89
# =========================================================
# ** Error: Assertion error.
#    Time: 448815 ns Started: 448805 ns  Scope: AXI_top.assertion.assert_rvalid_stable File: AXI_assertions.sv Line: 61 Expr: $stable(RDATA)
# [450615] READ PASS: ARADDR = 0xd18, ARLEN = 89, RRESP = 0x0
# =========================================================
# [GEN_RANDOM] AXI Transaction:
# Read Channel : ARADDR = 0xc10, ARLEN = 19
# =========================================================
# ** Error: Assertion error.
#    Time: 450675 ns Started: 450665 ns  Scope: AXI_top.assertion.assert_rvalid_stable File: AXI_assertions.sv Line: 61 Expr: $stable(RDATA)
# [451075] READ PASS: ARADDR = 0xc10, ARLEN = 19, RRESP = 0x0
# =========================================================
# [GEN_RANDOM] AXI Transaction:
# Read Channel : ARADDR = 0xda0, ARLEN = 242
# =========================================================
# [455995] READ PASS: ARADDR = 0xda0, ARLEN = 242, RRESP = 0x2
# =========================================================
# [GEN_RANDOM] AXI Transaction:
# Read Channel : ARADDR = 0x638, ARLEN = 110
# =========================================================
# ** Error: Assertion error.
#    Time: 456055 ns Started: 456045 ns  Scope: AXI_top.assertion.assert_rvalid_stable File: AXI_assertions.sv Line: 61 Expr: $stable(RDATA)
# [458275] READ PASS: ARADDR = 0x638, ARLEN = 110, RRESP = 0x0
# =========================================================
# [GEN_RANDOM] AXI Transaction:
# Write Channel: AWADDR = 0x2e0, AWLEN = 151
# =========================================================
# [459865] WRITE PASS: AWADDR = 0x2e0, AWLEN = 151, BRESP = 0x0
# =========================================================
# [GEN_RANDOM] AXI Transaction:
# Read Channel : ARADDR = 0x94, ARLEN = 162
# =========================================================
# ** Error: Assertion error.
#    Time: 459925 ns Started: 459915 ns  Scope: AXI_top.assertion.assert_rvalid_stable File: AXI_assertions.sv Line: 61 Expr: $stable(RDATA)
# [463185] READ PASS: ARADDR = 0x94, ARLEN = 162, RRESP = 0x0
# =========================================================
# [GEN_RANDOM] AXI Transaction:
# Write Channel: AWADDR = 0xecc, AWLEN = 126
# =========================================================
# [464525] WRITE PASS: AWADDR = 0xecc, AWLEN = 126, BRESP = 0x2
# =========================================================
# [GEN_RANDOM] AXI Transaction:
# Read Channel : ARADDR = 0x6bc, ARLEN = 142
# =========================================================
# ** Error: Assertion error.
#    Time: 464585 ns Started: 464575 ns  Scope: AXI_top.assertion.assert_rvalid_stable File: AXI_assertions.sv Line: 61 Expr: $stable(RDATA)
# [467445] READ PASS: ARADDR = 0x6bc, ARLEN = 142, RRESP = 0x0
# =========================================================
# [GEN_RANDOM] AXI Transaction:
# Read Channel : ARADDR = 0xa00, ARLEN = 21
# =========================================================
# ** Error: Assertion error.
#    Time: 467505 ns Started: 467495 ns  Scope: AXI_top.assertion.assert_rvalid_stable File: AXI_assertions.sv Line: 61 Expr: $stable(RDATA)
# [467945] READ PASS: ARADDR = 0xa00, ARLEN = 21, RRESP = 0x0
# =========================================================
# [GEN_RANDOM] AXI Transaction:
# Write Channel: AWADDR = 0xfd0, AWLEN = 15
# =========================================================
# [468175] WRITE PASS: AWADDR = 0xfd0, AWLEN = 15, BRESP = 0x2
# =========================================================
# [GEN_RANDOM] AXI Transaction:
# Read Channel : ARADDR = 0x354, ARLEN = 209
# =========================================================
# ** Error: Assertion error.
#    Time: 468235 ns Started: 468225 ns  Scope: AXI_top.assertion.assert_rvalid_stable File: AXI_assertions.sv Line: 61 Expr: $stable(RDATA)
# [472435] READ PASS: ARADDR = 0x354, ARLEN = 209, RRESP = 0x0
# =========================================================
# [GEN_RANDOM] AXI Transaction:
# Read Channel : ARADDR = 0xf38, ARLEN = 151
# =========================================================
# [475535] READ PASS: ARADDR = 0xf38, ARLEN = 151, RRESP = 0x2
# =========================================================
# [GEN_RANDOM] AXI Transaction:
# Write Channel: AWADDR = 0x674, AWLEN = 207
# =========================================================
# [477685] WRITE PASS: AWADDR = 0x674, AWLEN = 207, BRESP = 0x0
# =========================================================
# [GEN_RANDOM] AXI Transaction:
# Read Channel : ARADDR = 0x594, ARLEN = 181
# =========================================================
# ** Error: Assertion error.
#    Time: 477745 ns Started: 477735 ns  Scope: AXI_top.assertion.assert_rvalid_stable File: AXI_assertions.sv Line: 61 Expr: $stable(RDATA)
# [481385] READ PASS: ARADDR = 0x594, ARLEN = 181, RRESP = 0x0
# =========================================================
# [GEN_RANDOM] AXI Transaction:
# Write Channel: AWADDR = 0xb04, AWLEN = 29
# =========================================================
# [481755] WRITE PASS: AWADDR = 0xb04, AWLEN = 29, BRESP = 0x0
# =========================================================
# [GEN_RANDOM] AXI Transaction:
# Write Channel: AWADDR = 0x39c, AWLEN = 87
# =========================================================
# [482705] WRITE PASS: AWADDR = 0x39c, AWLEN = 87, BRESP = 0x0
# =========================================================
# [GEN_RANDOM] AXI Transaction:
# Write Channel: AWADDR = 0x8dc, AWLEN = 148
# =========================================================
# [484265] WRITE PASS: AWADDR = 0x8dc, AWLEN = 148, BRESP = 0x0
# =========================================================
# [GEN_RANDOM] AXI Transaction:
# Write Channel: AWADDR = 0x8a4, AWLEN = 239
# =========================================================
# [486735] WRITE PASS: AWADDR = 0x8a4, AWLEN = 239, BRESP = 0x2
# =========================================================
# [GEN_RANDOM] AXI Transaction:
# Read Channel : ARADDR = 0x8c, ARLEN = 12
# =========================================================
# ** Error: Assertion error.
#    Time: 486795 ns Started: 486785 ns  Scope: AXI_top.assertion.assert_rvalid_stable File: AXI_assertions.sv Line: 61 Expr: $stable(RDATA)
# [487055] READ PASS: ARADDR = 0x8c, ARLEN = 12, RRESP = 0x0
# =========================================================
# [GEN_RANDOM] AXI Transaction:
# Write Channel: AWADDR = 0x6b4, AWLEN = 231
# =========================================================
# [489445] WRITE PASS: AWADDR = 0x6b4, AWLEN = 231, BRESP = 0x0
# =========================================================
# [GEN_RANDOM] AXI Transaction:
# Write Channel: AWADDR = 0x168, AWLEN = 249
# =========================================================
# [492015] WRITE PASS: AWADDR = 0x168, AWLEN = 249, BRESP = 0x0
# =========================================================
# [GEN_RANDOM] AXI Transaction:
# Write Channel: AWADDR = 0xbb8, AWLEN = 35
# =========================================================
# [492445] WRITE PASS: AWADDR = 0xbb8, AWLEN = 35, BRESP = 0x0
# =========================================================
# [GEN_RANDOM] AXI Transaction:
# Read Channel : ARADDR = 0xd78, ARLEN = 117
# =========================================================
# ** Error: Assertion error.
#    Time: 492505 ns Started: 492495 ns  Scope: AXI_top.assertion.assert_rvalid_stable File: AXI_assertions.sv Line: 61 Expr: $stable(RDATA)
# [494865] READ PASS: ARADDR = 0xd78, ARLEN = 117, RRESP = 0x2
# =========================================================
# [GEN_RANDOM] AXI Transaction:
# Read Channel : ARADDR = 0xd30, ARLEN = 182
# =========================================================
# [498585] READ PASS: ARADDR = 0xd30, ARLEN = 182, RRESP = 0x2
# =========================================================
# [GEN_RANDOM] AXI Transaction:
# Write Channel: AWADDR = 0x238, AWLEN = 44
# =========================================================
# [499105] WRITE PASS: AWADDR = 0x238, AWLEN = 44, BRESP = 0x0
# =========================================================
# [GEN_RANDOM] AXI Transaction:
# Read Channel : ARADDR = 0x5c, ARLEN = 149
# =========================================================
# ** Error: Assertion error.
#    Time: 499165 ns Started: 499155 ns  Scope: AXI_top.assertion.assert_rvalid_stable File: AXI_assertions.sv Line: 61 Expr: $stable(RDATA)
# [502165] READ PASS: ARADDR = 0x5c, ARLEN = 149, RRESP = 0x0
# =========================================================
# [GEN_RANDOM] AXI Transaction:
# Write Channel: AWADDR = 0x7f4, AWLEN = 76
# =========================================================
# [503005] WRITE PASS: AWADDR = 0x7f4, AWLEN = 76, BRESP = 0x0
# =========================================================
# [GEN_RANDOM] AXI Transaction:
# Write Channel: AWADDR = 0x770, AWLEN = 84
# =========================================================
# [503925] WRITE PASS: AWADDR = 0x770, AWLEN = 84, BRESP = 0x0
# =========================================================
# [GEN_RANDOM] AXI Transaction:
# Write Channel: AWADDR = 0xd88, AWLEN = 112
# =========================================================
# [505125] WRITE PASS: AWADDR = 0xd88, AWLEN = 112, BRESP = 0x2
# =========================================================
# [GEN_RANDOM] AXI Transaction:
# Write Channel: AWADDR = 0x6cc, AWLEN = 25
# =========================================================
# [505455] WRITE PASS: AWADDR = 0x6cc, AWLEN = 25, BRESP = 0x0
# =========================================================
# [GEN_RANDOM] AXI Transaction:
# Read Channel : ARADDR = 0x4d8, ARLEN = 144
# =========================================================
# ** Error: Assertion error.
#    Time: 505515 ns Started: 505505 ns  Scope: AXI_top.assertion.assert_rvalid_stable File: AXI_assertions.sv Line: 61 Expr: $stable(RDATA)
# [508415] READ PASS: ARADDR = 0x4d8, ARLEN = 144, RRESP = 0x0
# =========================================================
# [GEN_RANDOM] AXI Transaction:
# Read Channel : ARADDR = 0xa30, ARLEN = 152
# =========================================================
# ** Error: Assertion error.
#    Time: 508475 ns Started: 508465 ns  Scope: AXI_top.assertion.assert_rvalid_stable File: AXI_assertions.sv Line: 61 Expr: $stable(RDATA)
# [511535] READ PASS: ARADDR = 0xa30, ARLEN = 152, RRESP = 0x0
# =========================================================
# [GEN_RANDOM] AXI Transaction:
# Read Channel : ARADDR = 0x558, ARLEN = 93
# =========================================================
# ** Error: Assertion error.
#    Time: 511595 ns Started: 511585 ns  Scope: AXI_top.assertion.assert_rvalid_stable File: AXI_assertions.sv Line: 61 Expr: $stable(RDATA)
# [513475] READ PASS: ARADDR = 0x558, ARLEN = 93, RRESP = 0x0
# =========================================================
# [GEN_RANDOM] AXI Transaction:
# Read Channel : ARADDR = 0xdd4, ARLEN = 176
# =========================================================
# [517075] READ PASS: ARADDR = 0xdd4, ARLEN = 176, RRESP = 0x2
# =========================================================
# [GEN_RANDOM] AXI Transaction:
# Write Channel: AWADDR = 0x958, AWLEN = 126
# =========================================================
# [518415] WRITE PASS: AWADDR = 0x958, AWLEN = 126, BRESP = 0x0
# =========================================================
# [GEN_RANDOM] AXI Transaction:
# Read Channel : ARADDR = 0x938, ARLEN = 106
# =========================================================
# ** Error: Assertion error.
#    Time: 518475 ns Started: 518465 ns  Scope: AXI_top.assertion.assert_rvalid_stable File: AXI_assertions.sv Line: 61 Expr: $stable(RDATA)
# [520615] READ PASS: ARADDR = 0x938, ARLEN = 106, RRESP = 0x0
# =========================================================
# [GEN_RANDOM] AXI Transaction:
# Write Channel: AWADDR = 0x324, AWLEN = 198
# =========================================================
# [522675] WRITE PASS: AWADDR = 0x324, AWLEN = 198, BRESP = 0x0
# =========================================================
# [GEN_RANDOM] AXI Transaction:
# Write Channel: AWADDR = 0xdb8, AWLEN = 58
# =========================================================
# [523335] WRITE PASS: AWADDR = 0xdb8, AWLEN = 58, BRESP = 0x0
# =========================================================
# [GEN_RANDOM] AXI Transaction:
# Read Channel : ARADDR = 0x6f8, ARLEN = 152
# =========================================================
# ** Error: Assertion error.
#    Time: 523395 ns Started: 523385 ns  Scope: AXI_top.assertion.assert_rvalid_stable File: AXI_assertions.sv Line: 61 Expr: $stable(RDATA)
# [526455] READ PASS: ARADDR = 0x6f8, ARLEN = 152, RRESP = 0x0
# =========================================================
# [GEN_RANDOM] AXI Transaction:
# Write Channel: AWADDR = 0xb68, AWLEN = 167
# =========================================================
# [528205] WRITE PASS: AWADDR = 0xb68, AWLEN = 167, BRESP = 0x2
# =========================================================
# [GEN_RANDOM] AXI Transaction:
# Write Channel: AWADDR = 0x4bc, AWLEN = 45
# =========================================================
# [528735] WRITE PASS: AWADDR = 0x4bc, AWLEN = 45, BRESP = 0x0
# =========================================================
# [GEN_RANDOM] AXI Transaction:
# Read Channel : ARADDR = 0x3c4, ARLEN = 95
# =========================================================
# ** Error: Assertion error.
#    Time: 528795 ns Started: 528785 ns  Scope: AXI_top.assertion.assert_rvalid_stable File: AXI_assertions.sv Line: 61 Expr: $stable(RDATA)
# [530715] READ PASS: ARADDR = 0x3c4, ARLEN = 95, RRESP = 0x0
# =========================================================
# [GEN_RANDOM] AXI Transaction:
# Write Channel: AWADDR = 0x4b4, AWLEN = 109
# =========================================================
# [531885] WRITE PASS: AWADDR = 0x4b4, AWLEN = 109, BRESP = 0x0
# =========================================================
# [GEN_RANDOM] AXI Transaction:
# Write Channel: AWADDR = 0xa8, AWLEN = 141
# =========================================================
# [533375] WRITE PASS: AWADDR = 0xa8, AWLEN = 141, BRESP = 0x0
# =========================================================
# [GEN_RANDOM] AXI Transaction:
# Write Channel: AWADDR = 0x33c, AWLEN = 21
# =========================================================
# [533665] WRITE PASS: AWADDR = 0x33c, AWLEN = 21, BRESP = 0x0
# =========================================================
# [GEN_RANDOM] AXI Transaction:
# Write Channel: AWADDR = 0xb40, AWLEN = 88
# =========================================================
# [534625] WRITE PASS: AWADDR = 0xb40, AWLEN = 88, BRESP = 0x0
# =========================================================
# [GEN_RANDOM] AXI Transaction:
# Read Channel : ARADDR = 0x218, ARLEN = 255
# =========================================================
# ** Error: Assertion error.
#    Time: 534685 ns Started: 534675 ns  Scope: AXI_top.assertion.assert_rvalid_stable File: AXI_assertions.sv Line: 61 Expr: $stable(RDATA)
# [539805] READ PASS: ARADDR = 0x218, ARLEN = 255, RRESP = 0x0
# =========================================================
# [GEN_RANDOM] AXI Transaction:
# Read Channel : ARADDR = 0xff0, ARLEN = 187
# =========================================================
# [543625] READ PASS: ARADDR = 0xff0, ARLEN = 187, RRESP = 0x2
# =========================================================
# [GEN_RANDOM] AXI Transaction:
# Read Channel : ARADDR = 0x9d8, ARLEN = 36
# =========================================================
# ** Error: Assertion error.
#    Time: 543685 ns Started: 543675 ns  Scope: AXI_top.assertion.assert_rvalid_stable File: AXI_assertions.sv Line: 61 Expr: $stable(RDATA)
# [544425] READ PASS: ARADDR = 0x9d8, ARLEN = 36, RRESP = 0x0
# =========================================================
# [GEN_RANDOM] AXI Transaction:
# Read Channel : ARADDR = 0x14c, ARLEN = 109
# =========================================================
# ** Error: Assertion error.
#    Time: 544485 ns Started: 544475 ns  Scope: AXI_top.assertion.assert_rvalid_stable File: AXI_assertions.sv Line: 61 Expr: $stable(RDATA)
# [546685] READ PASS: ARADDR = 0x14c, ARLEN = 109, RRESP = 0x0
# =========================================================
# [GEN_RANDOM] AXI Transaction:
# Write Channel: AWADDR = 0x448, AWLEN = 91
# =========================================================
# [547675] WRITE PASS: AWADDR = 0x448, AWLEN = 91, BRESP = 0x0
# =========================================================
# [GEN_RANDOM] AXI Transaction:
# Read Channel : ARADDR = 0xd4c, ARLEN = 38
# =========================================================
